# Aldec, Inc. Riviera-PRO version 2025.04.139.9738 built for Linux64 on May 30, 2025.
# HDL, SystemC, and Assertions simulator, debugger, and design environment.
# (c) 1999-2025 Aldec, Inc. All rights reserved.
# ELBREAD: Elaboration process.
# ELBREAD: Warning: ELBREAD_0022 The contents of module "xpm.xpm_fifo_sync" instantiated in architecture "axi_cdma_v4_1_35.axi_cdma_sfifo_autord(imp)" differ from the contents available during the compilation of this architecture.
# ELBREAD: Warning: ELBREAD_0022 The contents of module "xpm.xpm_fifo_sync" instantiated in architecture "axi_cdma_v4_1_35.axi_cdma_sf(implementation)" differ from the contents available during the compilation of this architecture.
# ELBREAD: Warning: ELBREAD_0022 The contents of module "xpm.xpm_fifo_async" instantiated in architecture "axi_sg_v4_1_21.axi_sg_afifo_autord(imp)" differ from the contents available during the compilation of this architecture.
# ELBREAD: Warning: ELBREAD_0022 The contents of module "xpm.xpm_fifo_sync" instantiated in architecture "axi_sg_v4_1_21.axi_sg_sfifo_autord(imp)" differ from the contents available during the compilation of this architecture.
# ELBREAD: Warning: ELBREAD_0022 The contents of module "xpm.xpm_fifo_sync" instantiated in architecture "axi_sg_v4_1_21.axi_sg_updt_queue(implementation)" differ from the contents available during the compilation of this architecture.
# ELBREAD: Warning: ELBREAD_0022 The contents of module "xpm.xpm_cdc_single" instantiated in architecture "axi_sg_v4_1_21.axi_sg_cntrl_strm(implementation)" differ from the contents available during the compilation of this architecture.
# ELBREAD: Warning: ELBREAD_0022 The contents of module "xpm.xpm_fifo_sync" instantiated in architecture "axi_sg_v4_1_21.axi_sg_cntrl_strm(implementation)" differ from the contents available during the compilation of this architecture.
# ELBREAD: Warning: ELBREAD_0022 The contents of module "xpm.xpm_fifo_sync" instantiated in architecture "axi_sg_v4_1_21.axi_sg_ftch_queue(implementation)" differ from the contents available during the compilation of this architecture.
# ELBREAD: Warning: ELBREAD_0022 The contents of module "xpm.xpm_cdc_single" instantiated in architecture "axi_cdma_v4_1_35.axi_cdma_pulse_gen(implementation)" differ from the contents available during the compilation of this architecture.
# ELBREAD: Warning: ELBREAD_0022 The contents of module "xpm.xpm_cdc_single" instantiated in architecture "axi_cdma_v4_1_35.axi_cdma_reg_module(implementation)" differ from the contents available during the compilation of this architecture.
# ELBREAD: Warning: ELBREAD_0022 The contents of module "xpm.xpm_cdc_sync_rst" instantiated in architecture "axi_cdma_v4_1_35.axi_cdma_reset(implementation)" differ from the contents available during the compilation of this architecture.
# ELBREAD: Warning: ELBREAD_0022 The contents of module "xpm.xpm_cdc_sync_rst" instantiated in architecture "axi_datamover_v5_1_37.axi_datamover_reset(implementation)" differ from the contents available during the compilation of this architecture.
# ELBREAD: Warning: ELBREAD_0022 The contents of module "xpm.xpm_fifo_sync" instantiated in architecture "axi_datamover_v5_1_37.axi_datamover_sfifo_autord(imp)" differ from the contents available during the compilation of this architecture.
# ELBREAD: Warning: ELBREAD_0022 The contents of module "xpm.xpm_fifo_async" instantiated in architecture "axi_datamover_v5_1_37.axi_datamover_afifo_autord(imp)" differ from the contents available during the compilation of this architecture.
# ELBREAD: Warning: ELBREAD_0049 The "uvm_pkg" design unit does not have a time unit/precision defined but other design units do.
# ELBREAD: Warning: ELBREAD_0049 The "std" design unit does not have a time unit/precision defined but other design units do.
# ELBREAD: Elaboration time 0.8 [s].
# KERNEL: seed value: 404844250
# KERNEL: Main thread initiated.
# KERNEL: Kernel process initialization phase.
# ELAB2: Elaboration final pass...
# KERNEL: PLI/VHPI kernel's engine initialization done.
# PLI: Loading library '/opt/Aldec/Riviera-PRO-2025.04-x64/bin/libsystf.so'
# ELAB2: Create instances ...
# KERNEL: Info: Loading library:  /opt/Aldec/Riviera-PRO-2025.04-x64/bin/uvm_1_2_dpi
# KERNEL: Time resolution set to 1ps.
# ELAB2: Create instances complete.
# SLP: Started
# SLP: Elaboration phase ...
# SLP: Elaboration phase ... done : 0.1 [s]
# SLP: Generation phase ...
# SLP: Generation phase ... done : 0.2 [s]
# SLP: Finished : 0.3 [s]
# ELAB2: You do not have a license to run VHDL performance optimized simulation. Contact Aldec for ordering information - sales@aldec.com.
# SLP: 0 primitives and 428 (13.86%) other processes in SLP
# SLP: 927 (2.16%) signals in SLP and 1349 (3.14%) interface signals
# ELAB2: Elaboration final pass complete - time: 2.4 [s].
# KERNEL: SLP loading done - time: 0.0 [s].
# KERNEL: Warning: You are using the Riviera-PRO EDU Edition. The performance of simulation is reduced.
# KERNEL: Warning: Contact Aldec for available upgrade options - sales@aldec.com.
# KERNEL: SLP simulation initialization done - time: 0.0 [s].
# KERNEL: Kernel process initialization done.
# Allocation: Simulator allocated 53593 kB (elbread=2682 elab2=40925 kernel=9986 sdf=0)
# KERNEL: UVM_INFO ./uvm-1.2/src/base/uvm_root.svh(392) @ 0: reporter [UVM/RELNOTES] 
# KERNEL: ----------------------------------------------------------------
# KERNEL: UVM-1.2
# KERNEL: (C) 2007-2014 Mentor Graphics Corporation
# KERNEL: (C) 2007-2014 Cadence Design Systems, Inc.
# KERNEL: (C) 2006-2014 Synopsys, Inc.
# KERNEL: (C) 2011-2013 Cypress Semiconductor Corp.
# KERNEL: (C) 2013-2014 NVIDIA Corporation
# KERNEL: ----------------------------------------------------------------
# KERNEL: 
# KERNEL:   ***********       IMPORTANT RELEASE NOTES         ************
# KERNEL: 
# KERNEL:   You are using a version of the UVM library that has been compiled
# KERNEL:   with `UVM_NO_DEPRECATED undefined.
# KERNEL:   See http://www.eda.org/svdb/view.php?id=3313 for more details.
# KERNEL: 
# KERNEL:   You are using a version of the UVM library that has been compiled
# KERNEL:   with `UVM_OBJECT_DO_NOT_NEED_CONSTRUCTOR undefined.
# KERNEL:   See http://www.eda.org/svdb/view.php?id=3770 for more details.
# KERNEL: 
# KERNEL:       (Specify +UVM_NO_RELNOTES to turn off this notice)
# KERNEL: 
# KERNEL: ASDB file was created in location /home/harish/AXI_CDMA/riviera/dataset.asdb
# VSIM: No objects matching.
# VSIM: 0 object(s) traced.
# KERNEL: Warning: KERNEL_0085 "/top/m_axi_lite_if/DRV_MOD_master/areset_n" does not have read access. Use switch +access +r for this region.
# KERNEL: Warning: KERNEL_0085 "/top/m_axi_lite_if/DRV_MOD_master/*mas_drv_cb_clocking_event" does not have read access. Use switch +access +r for this region.
# KERNEL: Warning: KERNEL_0085 "/top/m_axi_lite_if/DRV_MOD_master/\mas_drv_cb.awaddr \" does not have read access. Use switch +access +r for this region.
# KERNEL: Warning: KERNEL_0085 "/top/m_axi_lite_if/DRV_MOD_master/\mas_drv_cb.awburst \" does not have read access. Use switch +access +r for this region.
# KERNEL: Warning: KERNEL_0085 "/top/m_axi_lite_if/DRV_MOD_master/\mas_drv_cb.awcache \" does not have read access. Use switch +access +r for this region.
# KERNEL: Warning: KERNEL_0085 "/top/m_axi_lite_if/DRV_MOD_master/\mas_drv_cb.awid \" does not have read access. Use switch +access +r for this region.
# KERNEL: Warning: KERNEL_0085 "/top/m_axi_lite_if/DRV_MOD_master/\mas_drv_cb.awlen \" does not have read access. Use switch +access +r for this region.
# KERNEL: Warning: KERNEL_0085 "/top/m_axi_lite_if/DRV_MOD_master/\mas_drv_cb.awlock \" does not have read access. Use switch +access +r for this region.
# KERNEL: Warning: KERNEL_0085 "/top/m_axi_lite_if/DRV_MOD_master/\mas_drv_cb.awprot \" does not have read access. Use switch +access +r for this region.
# KERNEL: Warning: KERNEL_0085 "/top/m_axi_lite_if/DRV_MOD_master/\mas_drv_cb.awqos \" does not have read access. Use switch +access +r for this region.
# KERNEL: Warning: KERNEL_0085 "/top/m_axi_lite_if/DRV_MOD_master/\mas_drv_cb.awready \" does not have read access. Use switch +access +r for this region.
# KERNEL: Warning: KERNEL_0085 "/top/m_axi_lite_if/DRV_MOD_master/\mas_drv_cb.awregion \" does not have read access. Use switch +access +r for this region.
# KERNEL: Warning: KERNEL_0085 "/top/m_axi_lite_if/DRV_MOD_master/\mas_drv_cb.awsize \" does not have read access. Use switch +access +r for this region.
# KERNEL: Warning: KERNEL_0085 "/top/m_axi_lite_if/DRV_MOD_master/\mas_drv_cb.awvalid \" does not have read access. Use switch +access +r for this region.
# KERNEL: Warning: KERNEL_0085 "/top/m_axi_lite_if/DRV_MOD_master/\mas_drv_cb.bid \" does not have read access. Use switch +access +r for this region.
# KERNEL: Warning: KERNEL_0085 "/top/m_axi_lite_if/DRV_MOD_master/\mas_drv_cb.bready \" does not have read access. Use switch +access +r for this region.
# KERNEL: Warning: KERNEL_0085 "/top/m_axi_lite_if/DRV_MOD_master/\mas_drv_cb.bresp \" does not have read access. Use switch +access +r for this region.
# KERNEL: Warning: KERNEL_0085 "/top/m_axi_lite_if/DRV_MOD_master/\mas_drv_cb.bvalid \" does not have read access. Use switch +access +r for this region.
# KERNEL: Warning: KERNEL_0085 "/top/m_axi_lite_if/DRV_MOD_master/\mas_drv_cb.rdata \" does not have read access. Use switch +access +r for this region.
# KERNEL: Warning: KERNEL_0085 "/top/m_axi_lite_if/DRV_MOD_master/\mas_drv_cb.rid \" does not have read access. Use switch +access +r for this region.
# KERNEL: Warning: KERNEL_0085 "/top/m_axi_lite_if/DRV_MOD_master/\mas_drv_cb.rlast \" does not have read access. Use switch +access +r for this region.
# KERNEL: Warning: KERNEL_0085 "/top/m_axi_lite_if/DRV_MOD_master/\mas_drv_cb.rready \" does not have read access. Use switch +access +r for this region.
# KERNEL: Warning: KERNEL_0085 "/top/m_axi_lite_if/DRV_MOD_master/\mas_drv_cb.rresp \" does not have read access. Use switch +access +r for this region.
# KERNEL: Warning: KERNEL_0085 "/top/m_axi_lite_if/DRV_MOD_master/\mas_drv_cb.rvalid \" does not have read access. Use switch +access +r for this region.
# KERNEL: Warning: KERNEL_0085 "/top/m_axi_lite_if/DRV_MOD_master/\mas_drv_cb.wdata \" does not have read access. Use switch +access +r for this region.
# KERNEL: Warning: KERNEL_0085 "/top/m_axi_lite_if/DRV_MOD_master/\mas_drv_cb.wlast \" does not have read access. Use switch +access +r for this region.
# KERNEL: Warning: KERNEL_0085 "/top/m_axi_lite_if/DRV_MOD_master/\mas_drv_cb.wready \" does not have read access. Use switch +access +r for this region.
# KERNEL: Warning: KERNEL_0085 "/top/m_axi_lite_if/DRV_MOD_master/\mas_drv_cb.wstrobe \" does not have read access. Use switch +access +r for this region.
# KERNEL: Warning: KERNEL_0085 "/top/m_axi_lite_if/DRV_MOD_master/\mas_drv_cb.wvalid \" does not have read access. Use switch +access +r for this region.
# KERNEL: Warning: KERNEL_0085 "/top/m_axi_lite_if/DRV_MOD_master/\mas_drv_cb.araddr \" does not have read access. Use switch +access +r for this region.
# KERNEL: Warning: KERNEL_0085 "/top/m_axi_lite_if/DRV_MOD_master/\mas_drv_cb.arburst \" does not have read access. Use switch +access +r for this region.
# KERNEL: Warning: KERNEL_0085 "/top/m_axi_lite_if/DRV_MOD_master/\mas_drv_cb.arcache \" does not have read access. Use switch +access +r for this region.
# KERNEL: Warning: KERNEL_0085 "/top/m_axi_lite_if/DRV_MOD_master/\mas_drv_cb.arid \" does not have read access. Use switch +access +r for this region.
# KERNEL: Warning: KERNEL_0085 "/top/m_axi_lite_if/DRV_MOD_master/\mas_drv_cb.arlen \" does not have read access. Use switch +access +r for this region.
# KERNEL: Warning: KERNEL_0085 "/top/m_axi_lite_if/DRV_MOD_master/\mas_drv_cb.arlock \" does not have read access. Use switch +access +r for this region.
# KERNEL: Warning: KERNEL_0085 "/top/m_axi_lite_if/DRV_MOD_master/\mas_drv_cb.arprot \" does not have read access. Use switch +access +r for this region.
# KERNEL: Warning: KERNEL_0085 "/top/m_axi_lite_if/DRV_MOD_master/\mas_drv_cb.arqos \" does not have read access. Use switch +access +r for this region.
# KERNEL: Warning: KERNEL_0085 "/top/m_axi_lite_if/DRV_MOD_master/\mas_drv_cb.arready \" does not have read access. Use switch +access +r for this region.
# KERNEL: Warning: KERNEL_0085 "/top/m_axi_lite_if/DRV_MOD_master/\mas_drv_cb.arregion \" does not have read access. Use switch +access +r for this region.
# KERNEL: Warning: KERNEL_0085 "/top/m_axi_lite_if/DRV_MOD_master/\mas_drv_cb.arsize \" does not have read access. Use switch +access +r for this region.
# KERNEL: Warning: KERNEL_0085 "/top/m_axi_lite_if/DRV_MOD_master/\mas_drv_cb.arvalid \" does not have read access. Use switch +access +r for this region.
# KERNEL: Warning: KERNEL_0085 "/top/m_axi_lite_if/DRV_MOD_master/mas_drv_cb/mas_drv_cb" does not have read access. Use switch +access +r for this region.
# KERNEL: Warning: KERNEL_0085 "/top/m_axi_lite_if/DRV_MOD_master/mas_drv_cb/awaddr" does not have read access. Use switch +access +r for this region.
# KERNEL: Warning: KERNEL_0085 "/top/m_axi_lite_if/DRV_MOD_master/mas_drv_cb/awburst" does not have read access. Use switch +access +r for this region.
# KERNEL: Warning: KERNEL_0085 "/top/m_axi_lite_if/DRV_MOD_master/mas_drv_cb/awcache" does not have read access. Use switch +access +r for this region.
# KERNEL: Warning: KERNEL_0085 "/top/m_axi_lite_if/DRV_MOD_master/mas_drv_cb/awid" does not have read access. Use switch +access +r for this region.
# KERNEL: Warning: KERNEL_0085 "/top/m_axi_lite_if/DRV_MOD_master/mas_drv_cb/awlen" does not have read access. Use switch +access +r for this region.
# KERNEL: Warning: KERNEL_0085 "/top/m_axi_lite_if/DRV_MOD_master/mas_drv_cb/awlock" does not have read access. Use switch +access +r for this region.
# KERNEL: Warning: KERNEL_0085 "/top/m_axi_lite_if/DRV_MOD_master/mas_drv_cb/awprot" does not have read access. Use switch +access +r for this region.
# KERNEL: Warning: KERNEL_0085 "/top/m_axi_lite_if/DRV_MOD_master/mas_drv_cb/awqos" does not have read access. Use switch +access +r for this region.
# KERNEL: Warning: KERNEL_0085 "/top/m_axi_lite_if/DRV_MOD_master/mas_drv_cb/awready" does not have read access. Use switch +access +r for this region.
# KERNEL: Warning: KERNEL_0085 "/top/m_axi_lite_if/DRV_MOD_master/mas_drv_cb/awregion" does not have read access. Use switch +access +r for this region.
# KERNEL: Warning: KERNEL_0085 "/top/m_axi_lite_if/DRV_MOD_master/mas_drv_cb/awsize" does not have read access. Use switch +access +r for this region.
# KERNEL: Warning: KERNEL_0085 "/top/m_axi_lite_if/DRV_MOD_master/mas_drv_cb/awvalid" does not have read access. Use switch +access +r for this region.
# KERNEL: Warning: KERNEL_0085 "/top/m_axi_lite_if/DRV_MOD_master/mas_drv_cb/bid" does not have read access. Use switch +access +r for this region.
# KERNEL: Warning: KERNEL_0085 "/top/m_axi_lite_if/DRV_MOD_master/mas_drv_cb/bready" does not have read access. Use switch +access +r for this region.
# KERNEL: Warning: KERNEL_0085 "/top/m_axi_lite_if/DRV_MOD_master/mas_drv_cb/bresp" does not have read access. Use switch +access +r for this region.
# KERNEL: Warning: KERNEL_0085 "/top/m_axi_lite_if/DRV_MOD_master/mas_drv_cb/bvalid" does not have read access. Use switch +access +r for this region.
# KERNEL: Warning: KERNEL_0085 "/top/m_axi_lite_if/DRV_MOD_master/mas_drv_cb/rdata" does not have read access. Use switch +access +r for this region.
# KERNEL: Warning: KERNEL_0085 "/top/m_axi_lite_if/DRV_MOD_master/mas_drv_cb/rid" does not have read access. Use switch +access +r for this region.
# KERNEL: Warning: KERNEL_0085 "/top/m_axi_lite_if/DRV_MOD_master/mas_drv_cb/rlast" does not have read access. Use switch +access +r for this region.
# KERNEL: Warning: KERNEL_0085 "/top/m_axi_lite_if/DRV_MOD_master/mas_drv_cb/rready" does not have read access. Use switch +access +r for this region.
# KERNEL: Warning: KERNEL_0085 "/top/m_axi_lite_if/DRV_MOD_master/mas_drv_cb/rresp" does not have read access. Use switch +access +r for this region.
# KERNEL: Warning: KERNEL_0085 "/top/m_axi_lite_if/DRV_MOD_master/mas_drv_cb/rvalid" does not have read access. Use switch +access +r for this region.
# KERNEL: Warning: KERNEL_0085 "/top/m_axi_lite_if/DRV_MOD_master/mas_drv_cb/wdata" does not have read access. Use switch +access +r for this region.
# KERNEL: Warning: KERNEL_0085 "/top/m_axi_lite_if/DRV_MOD_master/mas_drv_cb/wlast" does not have read access. Use switch +access +r for this region.
# KERNEL: Warning: KERNEL_0085 "/top/m_axi_lite_if/DRV_MOD_master/mas_drv_cb/wready" does not have read access. Use switch +access +r for this region.
# KERNEL: Warning: KERNEL_0085 "/top/m_axi_lite_if/DRV_MOD_master/mas_drv_cb/wstrobe" does not have read access. Use switch +access +r for this region.
# KERNEL: Warning: KERNEL_0085 "/top/m_axi_lite_if/DRV_MOD_master/mas_drv_cb/wvalid" does not have read access. Use switch +access +r for this region.
# KERNEL: Warning: KERNEL_0085 "/top/m_axi_lite_if/DRV_MOD_master/mas_drv_cb/araddr" does not have read access. Use switch +access +r for this region.
# KERNEL: Warning: KERNEL_0085 "/top/m_axi_lite_if/DRV_MOD_master/mas_drv_cb/arburst" does not have read access. Use switch +access +r for this region.
# KERNEL: Warning: KERNEL_0085 "/top/m_axi_lite_if/DRV_MOD_master/mas_drv_cb/arcache" does not have read access. Use switch +access +r for this region.
# KERNEL: Warning: KERNEL_0085 "/top/m_axi_lite_if/DRV_MOD_master/mas_drv_cb/arid" does not have read access. Use switch +access +r for this region.
# KERNEL: Warning: KERNEL_0085 "/top/m_axi_lite_if/DRV_MOD_master/mas_drv_cb/arlen" does not have read access. Use switch +access +r for this region.
# KERNEL: Warning: KERNEL_0085 "/top/m_axi_lite_if/DRV_MOD_master/mas_drv_cb/arlock" does not have read access. Use switch +access +r for this region.
# KERNEL: Warning: KERNEL_0085 "/top/m_axi_lite_if/DRV_MOD_master/mas_drv_cb/arprot" does not have read access. Use switch +access +r for this region.
# KERNEL: Warning: KERNEL_0085 "/top/m_axi_lite_if/DRV_MOD_master/mas_drv_cb/arqos" does not have read access. Use switch +access +r for this region.
# KERNEL: Warning: KERNEL_0085 "/top/m_axi_lite_if/DRV_MOD_master/mas_drv_cb/arready" does not have read access. Use switch +access +r for this region.
# KERNEL: Warning: KERNEL_0085 "/top/m_axi_lite_if/DRV_MOD_master/mas_drv_cb/arregion" does not have read access. Use switch +access +r for this region.
# KERNEL: Warning: KERNEL_0085 "/top/m_axi_lite_if/DRV_MOD_master/mas_drv_cb/arsize" does not have read access. Use switch +access +r for this region.
# KERNEL: Warning: KERNEL_0085 "/top/m_axi_lite_if/DRV_MOD_master/mas_drv_cb/arvalid" does not have read access. Use switch +access +r for this region.
# KERNEL: Warning: KERNEL_0085 "/top/m_axi_lite_if/MON_MOD_master/areset_n" does not have read access. Use switch +access +r for this region.
# KERNEL: Warning: KERNEL_0085 "/top/m_axi_lite_if/MON_MOD_master/*mas_mon_cb_clocking_event" does not have read access. Use switch +access +r for this region.
# KERNEL: Warning: KERNEL_0085 "/top/m_axi_lite_if/MON_MOD_master/\mas_mon_cb.awid \" does not have read access. Use switch +access +r for this region.
# KERNEL: Warning: KERNEL_0085 "/top/m_axi_lite_if/MON_MOD_master/\mas_mon_cb.awaddr \" does not have read access. Use switch +access +r for this region.
# KERNEL: Warning: KERNEL_0085 "/top/m_axi_lite_if/MON_MOD_master/\mas_mon_cb.awlen \" does not have read access. Use switch +access +r for this region.
# KERNEL: Warning: KERNEL_0085 "/top/m_axi_lite_if/MON_MOD_master/\mas_mon_cb.awburst \" does not have read access. Use switch +access +r for this region.
# KERNEL: Warning: KERNEL_0085 "/top/m_axi_lite_if/MON_MOD_master/\mas_mon_cb.awsize \" does not have read access. Use switch +access +r for this region.
# KERNEL: Warning: KERNEL_0085 "/top/m_axi_lite_if/MON_MOD_master/\mas_mon_cb.awvalid \" does not have read access. Use switch +access +r for this region.
# KERNEL: Warning: KERNEL_0085 "/top/m_axi_lite_if/MON_MOD_master/\mas_mon_cb.awready \" does not have read access. Use switch +access +r for this region.
# KERNEL: Warning: KERNEL_0085 "/top/m_axi_lite_if/MON_MOD_master/\mas_mon_cb.bid \" does not have read access. Use switch +access +r for this region.
# KERNEL: Warning: KERNEL_0085 "/top/m_axi_lite_if/MON_MOD_master/\mas_mon_cb.bresp \" does not have read access. Use switch +access +r for this region.
# KERNEL: Warning: KERNEL_0085 "/top/m_axi_lite_if/MON_MOD_master/\mas_mon_cb.bvalid \" does not have read access. Use switch +access +r for this region.
# KERNEL: Warning: KERNEL_0085 "/top/m_axi_lite_if/MON_MOD_master/\mas_mon_cb.bready \" does not have read access. Use switch +access +r for this region.
# KERNEL: Warning: KERNEL_0085 "/top/m_axi_lite_if/MON_MOD_master/\mas_mon_cb.wdata \" does not have read access. Use switch +access +r for this region.
# KERNEL: Warning: KERNEL_0085 "/top/m_axi_lite_if/MON_MOD_master/\mas_mon_cb.wstrobe \" does not have read access. Use switch +access +r for this region.
# KERNEL: Warning: KERNEL_0085 "/top/m_axi_lite_if/MON_MOD_master/\mas_mon_cb.wlast \" does not have read access. Use switch +access +r for this region.
# KERNEL: Warning: KERNEL_0085 "/top/m_axi_lite_if/MON_MOD_master/\mas_mon_cb.wvalid \" does not have read access. Use switch +access +r for this region.
# KERNEL: Warning: KERNEL_0085 "/top/m_axi_lite_if/MON_MOD_master/\mas_mon_cb.wready \" does not have read access. Use switch +access +r for this region.
# KERNEL: Warning: KERNEL_0085 "/top/m_axi_lite_if/MON_MOD_master/\mas_mon_cb.awlock \" does not have read access. Use switch +access +r for this region.
# KERNEL: Warning: KERNEL_0085 "/top/m_axi_lite_if/MON_MOD_master/\mas_mon_cb.awprot \" does not have read access. Use switch +access +r for this region.
# KERNEL: Warning: KERNEL_0085 "/top/m_axi_lite_if/MON_MOD_master/\mas_mon_cb.awqos \" does not have read access. Use switch +access +r for this region.
# KERNEL: Warning: KERNEL_0085 "/top/m_axi_lite_if/MON_MOD_master/\mas_mon_cb.awregion \" does not have read access. Use switch +access +r for this region.
# KERNEL: Warning: KERNEL_0085 "/top/m_axi_lite_if/MON_MOD_master/\mas_mon_cb.awcache \" does not have read access. Use switch +access +r for this region.
# KERNEL: Warning: KERNEL_0085 "/top/m_axi_lite_if/MON_MOD_master/\mas_mon_cb.arid \" does not have read access. Use switch +access +r for this region.
# KERNEL: Warning: KERNEL_0085 "/top/m_axi_lite_if/MON_MOD_master/\mas_mon_cb.araddr \" does not have read access. Use switch +access +r for this region.
# KERNEL: Warning: KERNEL_0085 "/top/m_axi_lite_if/MON_MOD_master/\mas_mon_cb.arlen \" does not have read access. Use switch +access +r for this region.
# KERNEL: Warning: KERNEL_0085 "/top/m_axi_lite_if/MON_MOD_master/\mas_mon_cb.arburst \" does not have read access. Use switch +access +r for this region.
# KERNEL: Warning: KERNEL_0085 "/top/m_axi_lite_if/MON_MOD_master/\mas_mon_cb.arsize \" does not have read access. Use switch +access +r for this region.
# KERNEL: Warning: KERNEL_0085 "/top/m_axi_lite_if/MON_MOD_master/\mas_mon_cb.arvalid \" does not have read access. Use switch +access +r for this region.
# KERNEL: Warning: KERNEL_0085 "/top/m_axi_lite_if/MON_MOD_master/\mas_mon_cb.arready \" does not have read access. Use switch +access +r for this region.
# KERNEL: Warning: KERNEL_0085 "/top/m_axi_lite_if/MON_MOD_master/\mas_mon_cb.rid \" does not have read access. Use switch +access +r for this region.
# KERNEL: Warning: KERNEL_0085 "/top/m_axi_lite_if/MON_MOD_master/\mas_mon_cb.rresp \" does not have read access. Use switch +access +r for this region.
# KERNEL: Warning: KERNEL_0085 "/top/m_axi_lite_if/MON_MOD_master/\mas_mon_cb.rdata \" does not have read access. Use switch +access +r for this region.
# KERNEL: Warning: KERNEL_0085 "/top/m_axi_lite_if/MON_MOD_master/\mas_mon_cb.rlast \" does not have read access. Use switch +access +r for this region.
# KERNEL: Warning: KERNEL_0085 "/top/m_axi_lite_if/MON_MOD_master/\mas_mon_cb.rvalid \" does not have read access. Use switch +access +r for this region.
# KERNEL: Warning: KERNEL_0085 "/top/m_axi_lite_if/MON_MOD_master/\mas_mon_cb.rready \" does not have read access. Use switch +access +r for this region.
# KERNEL: Warning: KERNEL_0085 "/top/m_axi_lite_if/MON_MOD_master/\mas_mon_cb.arlock \" does not have read access. Use switch +access +r for this region.
# KERNEL: Warning: KERNEL_0085 "/top/m_axi_lite_if/MON_MOD_master/\mas_mon_cb.arprot \" does not have read access. Use switch +access +r for this region.
# KERNEL: Warning: KERNEL_0085 "/top/m_axi_lite_if/MON_MOD_master/\mas_mon_cb.arqos \" does not have read access. Use switch +access +r for this region.
# KERNEL: Warning: KERNEL_0085 "/top/m_axi_lite_if/MON_MOD_master/\mas_mon_cb.arregion \" does not have read access. Use switch +access +r for this region.
# KERNEL: Warning: KERNEL_0085 "/top/m_axi_lite_if/MON_MOD_master/\mas_mon_cb.arcache \" does not have read access. Use switch +access +r for this region.
# KERNEL: Warning: KERNEL_0085 "/top/m_axi_lite_if/MON_MOD_master/\mas_mon_cb.cdma_introut \" does not have read access. Use switch +access +r for this region.
# KERNEL: Warning: KERNEL_0085 "/top/m_axi_lite_if/MON_MOD_master/mas_mon_cb/mas_mon_cb" does not have read access. Use switch +access +r for this region.
# KERNEL: Warning: KERNEL_0085 "/top/m_axi_lite_if/MON_MOD_master/mas_mon_cb/awid" does not have read access. Use switch +access +r for this region.
# KERNEL: Warning: KERNEL_0085 "/top/m_axi_lite_if/MON_MOD_master/mas_mon_cb/awaddr" does not have read access. Use switch +access +r for this region.
# KERNEL: Warning: KERNEL_0085 "/top/m_axi_lite_if/MON_MOD_master/mas_mon_cb/awlen" does not have read access. Use switch +access +r for this region.
# KERNEL: Warning: KERNEL_0085 "/top/m_axi_lite_if/MON_MOD_master/mas_mon_cb/awburst" does not have read access. Use switch +access +r for this region.
# KERNEL: Warning: KERNEL_0085 "/top/m_axi_lite_if/MON_MOD_master/mas_mon_cb/awsize" does not have read access. Use switch +access +r for this region.
# KERNEL: Warning: KERNEL_0085 "/top/m_axi_lite_if/MON_MOD_master/mas_mon_cb/awvalid" does not have read access. Use switch +access +r for this region.
# KERNEL: Warning: KERNEL_0085 "/top/m_axi_lite_if/MON_MOD_master/mas_mon_cb/awready" does not have read access. Use switch +access +r for this region.
# KERNEL: Warning: KERNEL_0085 "/top/m_axi_lite_if/MON_MOD_master/mas_mon_cb/bid" does not have read access. Use switch +access +r for this region.
# KERNEL: Warning: KERNEL_0085 "/top/m_axi_lite_if/MON_MOD_master/mas_mon_cb/bresp" does not have read access. Use switch +access +r for this region.
# KERNEL: Warning: KERNEL_0085 "/top/m_axi_lite_if/MON_MOD_master/mas_mon_cb/bvalid" does not have read access. Use switch +access +r for this region.
# KERNEL: Warning: KERNEL_0085 "/top/m_axi_lite_if/MON_MOD_master/mas_mon_cb/bready" does not have read access. Use switch +access +r for this region.
# KERNEL: Warning: KERNEL_0085 "/top/m_axi_lite_if/MON_MOD_master/mas_mon_cb/wdata" does not have read access. Use switch +access +r for this region.
# KERNEL: Warning: KERNEL_0085 "/top/m_axi_lite_if/MON_MOD_master/mas_mon_cb/wstrobe" does not have read access. Use switch +access +r for this region.
# KERNEL: Warning: KERNEL_0085 "/top/m_axi_lite_if/MON_MOD_master/mas_mon_cb/wlast" does not have read access. Use switch +access +r for this region.
# KERNEL: Warning: KERNEL_0085 "/top/m_axi_lite_if/MON_MOD_master/mas_mon_cb/wvalid" does not have read access. Use switch +access +r for this region.
# KERNEL: Warning: KERNEL_0085 "/top/m_axi_lite_if/MON_MOD_master/mas_mon_cb/wready" does not have read access. Use switch +access +r for this region.
# KERNEL: Warning: KERNEL_0085 "/top/m_axi_lite_if/MON_MOD_master/mas_mon_cb/awlock" does not have read access. Use switch +access +r for this region.
# KERNEL: Warning: KERNEL_0085 "/top/m_axi_lite_if/MON_MOD_master/mas_mon_cb/awprot" does not have read access. Use switch +access +r for this region.
# KERNEL: Warning: KERNEL_0085 "/top/m_axi_lite_if/MON_MOD_master/mas_mon_cb/awqos" does not have read access. Use switch +access +r for this region.
# KERNEL: Warning: KERNEL_0085 "/top/m_axi_lite_if/MON_MOD_master/mas_mon_cb/awregion" does not have read access. Use switch +access +r for this region.
# KERNEL: Warning: KERNEL_0085 "/top/m_axi_lite_if/MON_MOD_master/mas_mon_cb/awcache" does not have read access. Use switch +access +r for this region.
# KERNEL: Warning: KERNEL_0085 "/top/m_axi_lite_if/MON_MOD_master/mas_mon_cb/arid" does not have read access. Use switch +access +r for this region.
# KERNEL: Warning: KERNEL_0085 "/top/m_axi_lite_if/MON_MOD_master/mas_mon_cb/araddr" does not have read access. Use switch +access +r for this region.
# KERNEL: Warning: KERNEL_0085 "/top/m_axi_lite_if/MON_MOD_master/mas_mon_cb/arlen" does not have read access. Use switch +access +r for this region.
# KERNEL: Warning: KERNEL_0085 "/top/m_axi_lite_if/MON_MOD_master/mas_mon_cb/arburst" does not have read access. Use switch +access +r for this region.
# KERNEL: Warning: KERNEL_0085 "/top/m_axi_lite_if/MON_MOD_master/mas_mon_cb/arsize" does not have read access. Use switch +access +r for this region.
# KERNEL: Warning: KERNEL_0085 "/top/m_axi_lite_if/MON_MOD_master/mas_mon_cb/arvalid" does not have read access. Use switch +access +r for this region.
# KERNEL: Warning: KERNEL_0085 "/top/m_axi_lite_if/MON_MOD_master/mas_mon_cb/arready" does not have read access. Use switch +access +r for this region.
# KERNEL: Warning: KERNEL_0085 "/top/m_axi_lite_if/MON_MOD_master/mas_mon_cb/rid" does not have read access. Use switch +access +r for this region.
# KERNEL: Warning: KERNEL_0085 "/top/m_axi_lite_if/MON_MOD_master/mas_mon_cb/rresp" does not have read access. Use switch +access +r for this region.
# KERNEL: Warning: KERNEL_0085 "/top/m_axi_lite_if/MON_MOD_master/mas_mon_cb/rdata" does not have read access. Use switch +access +r for this region.
# KERNEL: Warning: KERNEL_0085 "/top/m_axi_lite_if/MON_MOD_master/mas_mon_cb/rlast" does not have read access. Use switch +access +r for this region.
# KERNEL: Warning: KERNEL_0085 "/top/m_axi_lite_if/MON_MOD_master/mas_mon_cb/rvalid" does not have read access. Use switch +access +r for this region.
# KERNEL: Warning: KERNEL_0085 "/top/m_axi_lite_if/MON_MOD_master/mas_mon_cb/rready" does not have read access. Use switch +access +r for this region.
# KERNEL: Warning: KERNEL_0085 "/top/m_axi_lite_if/MON_MOD_master/mas_mon_cb/arlock" does not have read access. Use switch +access +r for this region.
# KERNEL: Warning: KERNEL_0085 "/top/m_axi_lite_if/MON_MOD_master/mas_mon_cb/arprot" does not have read access. Use switch +access +r for this region.
# KERNEL: Warning: KERNEL_0085 "/top/m_axi_lite_if/MON_MOD_master/mas_mon_cb/arqos" does not have read access. Use switch +access +r for this region.
# KERNEL: Warning: KERNEL_0085 "/top/m_axi_lite_if/MON_MOD_master/mas_mon_cb/arregion" does not have read access. Use switch +access +r for this region.
# KERNEL: Warning: KERNEL_0085 "/top/m_axi_lite_if/MON_MOD_master/mas_mon_cb/arcache" does not have read access. Use switch +access +r for this region.
# KERNEL: Warning: KERNEL_0085 "/top/m_axi_lite_if/MON_MOD_master/mas_mon_cb/cdma_introut" does not have read access. Use switch +access +r for this region.
# VSIM: 121 object(s) traced.
# KERNEL: Warning: KERNEL_0085 "/top/s_axi_if/DRV_MOD_slave/areset_n" does not have read access. Use switch +access +r for this region.
# KERNEL: Warning: KERNEL_0085 "/top/s_axi_if/DRV_MOD_slave/*slv_drv_cb_clocking_event" does not have read access. Use switch +access +r for this region.
# KERNEL: Warning: KERNEL_0085 "/top/s_axi_if/DRV_MOD_slave/\slv_drv_cb.araddr \" does not have read access. Use switch +access +r for this region.
# KERNEL: Warning: KERNEL_0085 "/top/s_axi_if/DRV_MOD_slave/\slv_drv_cb.arburst \" does not have read access. Use switch +access +r for this region.
# KERNEL: Warning: KERNEL_0085 "/top/s_axi_if/DRV_MOD_slave/\slv_drv_cb.arcache \" does not have read access. Use switch +access +r for this region.
# KERNEL: Warning: KERNEL_0085 "/top/s_axi_if/DRV_MOD_slave/\slv_drv_cb.arlen \" does not have read access. Use switch +access +r for this region.
# KERNEL: Warning: KERNEL_0085 "/top/s_axi_if/DRV_MOD_slave/\slv_drv_cb.arlock \" does not have read access. Use switch +access +r for this region.
# KERNEL: Warning: KERNEL_0085 "/top/s_axi_if/DRV_MOD_slave/\slv_drv_cb.arprot \" does not have read access. Use switch +access +r for this region.
# KERNEL: Warning: KERNEL_0085 "/top/s_axi_if/DRV_MOD_slave/\slv_drv_cb.arid \" does not have read access. Use switch +access +r for this region.
# KERNEL: Warning: KERNEL_0085 "/top/s_axi_if/DRV_MOD_slave/\slv_drv_cb.arqos \" does not have read access. Use switch +access +r for this region.
# KERNEL: Warning: KERNEL_0085 "/top/s_axi_if/DRV_MOD_slave/\slv_drv_cb.arready \" does not have read access. Use switch +access +r for this region.
# KERNEL: Warning: KERNEL_0085 "/top/s_axi_if/DRV_MOD_slave/\slv_drv_cb.arregion \" does not have read access. Use switch +access +r for this region.
# KERNEL: Warning: KERNEL_0085 "/top/s_axi_if/DRV_MOD_slave/\slv_drv_cb.arsize \" does not have read access. Use switch +access +r for this region.
# KERNEL: Warning: KERNEL_0085 "/top/s_axi_if/DRV_MOD_slave/\slv_drv_cb.arvalid \" does not have read access. Use switch +access +r for this region.
# KERNEL: Warning: KERNEL_0085 "/top/s_axi_if/DRV_MOD_slave/\slv_drv_cb.rdata \" does not have read access. Use switch +access +r for this region.
# KERNEL: Warning: KERNEL_0085 "/top/s_axi_if/DRV_MOD_slave/\slv_drv_cb.rid \" does not have read access. Use switch +access +r for this region.
# KERNEL: Warning: KERNEL_0085 "/top/s_axi_if/DRV_MOD_slave/\slv_drv_cb.rlast \" does not have read access. Use switch +access +r for this region.
# KERNEL: Warning: KERNEL_0085 "/top/s_axi_if/DRV_MOD_slave/\slv_drv_cb.rready \" does not have read access. Use switch +access +r for this region.
# KERNEL: Warning: KERNEL_0085 "/top/s_axi_if/DRV_MOD_slave/\slv_drv_cb.rresp \" does not have read access. Use switch +access +r for this region.
# KERNEL: Warning: KERNEL_0085 "/top/s_axi_if/DRV_MOD_slave/\slv_drv_cb.rvalid \" does not have read access. Use switch +access +r for this region.
# KERNEL: Warning: KERNEL_0085 "/top/s_axi_if/DRV_MOD_slave/\slv_drv_cb.awaddr \" does not have read access. Use switch +access +r for this region.
# KERNEL: Warning: KERNEL_0085 "/top/s_axi_if/DRV_MOD_slave/\slv_drv_cb.awburst \" does not have read access. Use switch +access +r for this region.
# KERNEL: Warning: KERNEL_0085 "/top/s_axi_if/DRV_MOD_slave/\slv_drv_cb.awcache \" does not have read access. Use switch +access +r for this region.
# KERNEL: Warning: KERNEL_0085 "/top/s_axi_if/DRV_MOD_slave/\slv_drv_cb.awid \" does not have read access. Use switch +access +r for this region.
# KERNEL: Warning: KERNEL_0085 "/top/s_axi_if/DRV_MOD_slave/\slv_drv_cb.awlen \" does not have read access. Use switch +access +r for this region.
# KERNEL: Warning: KERNEL_0085 "/top/s_axi_if/DRV_MOD_slave/\slv_drv_cb.awlock \" does not have read access. Use switch +access +r for this region.
# KERNEL: Warning: KERNEL_0085 "/top/s_axi_if/DRV_MOD_slave/\slv_drv_cb.awprot \" does not have read access. Use switch +access +r for this region.
# KERNEL: Warning: KERNEL_0085 "/top/s_axi_if/DRV_MOD_slave/\slv_drv_cb.awqos \" does not have read access. Use switch +access +r for this region.
# KERNEL: Warning: KERNEL_0085 "/top/s_axi_if/DRV_MOD_slave/\slv_drv_cb.awready \" does not have read access. Use switch +access +r for this region.
# KERNEL: Warning: KERNEL_0085 "/top/s_axi_if/DRV_MOD_slave/\slv_drv_cb.awregion \" does not have read access. Use switch +access +r for this region.
# KERNEL: Warning: KERNEL_0085 "/top/s_axi_if/DRV_MOD_slave/\slv_drv_cb.awsize \" does not have read access. Use switch +access +r for this region.
# KERNEL: Warning: KERNEL_0085 "/top/s_axi_if/DRV_MOD_slave/\slv_drv_cb.awvalid \" does not have read access. Use switch +access +r for this region.
# KERNEL: Warning: KERNEL_0085 "/top/s_axi_if/DRV_MOD_slave/\slv_drv_cb.bready \" does not have read access. Use switch +access +r for this region.
# KERNEL: Warning: KERNEL_0085 "/top/s_axi_if/DRV_MOD_slave/\slv_drv_cb.bresp \" does not have read access. Use switch +access +r for this region.
# KERNEL: Warning: KERNEL_0085 "/top/s_axi_if/DRV_MOD_slave/\slv_drv_cb.bid \" does not have read access. Use switch +access +r for this region.
# KERNEL: Warning: KERNEL_0085 "/top/s_axi_if/DRV_MOD_slave/\slv_drv_cb.bvalid \" does not have read access. Use switch +access +r for this region.
# KERNEL: Warning: KERNEL_0085 "/top/s_axi_if/DRV_MOD_slave/\slv_drv_cb.wdata \" does not have read access. Use switch +access +r for this region.
# KERNEL: Warning: KERNEL_0085 "/top/s_axi_if/DRV_MOD_slave/\slv_drv_cb.wlast \" does not have read access. Use switch +access +r for this region.
# KERNEL: Warning: KERNEL_0085 "/top/s_axi_if/DRV_MOD_slave/\slv_drv_cb.wready \" does not have read access. Use switch +access +r for this region.
# KERNEL: Warning: KERNEL_0085 "/top/s_axi_if/DRV_MOD_slave/\slv_drv_cb.wstrobe \" does not have read access. Use switch +access +r for this region.
# KERNEL: Warning: KERNEL_0085 "/top/s_axi_if/DRV_MOD_slave/\slv_drv_cb.wvalid \" does not have read access. Use switch +access +r for this region.
# KERNEL: Warning: KERNEL_0085 "/top/s_axi_if/DRV_MOD_slave/slv_drv_cb/slv_drv_cb" does not have read access. Use switch +access +r for this region.
# KERNEL: Warning: KERNEL_0085 "/top/s_axi_if/DRV_MOD_slave/slv_drv_cb/araddr" does not have read access. Use switch +access +r for this region.
# KERNEL: Warning: KERNEL_0085 "/top/s_axi_if/DRV_MOD_slave/slv_drv_cb/arburst" does not have read access. Use switch +access +r for this region.
# KERNEL: Warning: KERNEL_0085 "/top/s_axi_if/DRV_MOD_slave/slv_drv_cb/arcache" does not have read access. Use switch +access +r for this region.
# KERNEL: Warning: KERNEL_0085 "/top/s_axi_if/DRV_MOD_slave/slv_drv_cb/arlen" does not have read access. Use switch +access +r for this region.
# KERNEL: Warning: KERNEL_0085 "/top/s_axi_if/DRV_MOD_slave/slv_drv_cb/arlock" does not have read access. Use switch +access +r for this region.
# KERNEL: Warning: KERNEL_0085 "/top/s_axi_if/DRV_MOD_slave/slv_drv_cb/arprot" does not have read access. Use switch +access +r for this region.
# KERNEL: Warning: KERNEL_0085 "/top/s_axi_if/DRV_MOD_slave/slv_drv_cb/arid" does not have read access. Use switch +access +r for this region.
# KERNEL: Warning: KERNEL_0085 "/top/s_axi_if/DRV_MOD_slave/slv_drv_cb/arqos" does not have read access. Use switch +access +r for this region.
# KERNEL: Warning: KERNEL_0085 "/top/s_axi_if/DRV_MOD_slave/slv_drv_cb/arready" does not have read access. Use switch +access +r for this region.
# KERNEL: Warning: KERNEL_0085 "/top/s_axi_if/DRV_MOD_slave/slv_drv_cb/arregion" does not have read access. Use switch +access +r for this region.
# KERNEL: Warning: KERNEL_0085 "/top/s_axi_if/DRV_MOD_slave/slv_drv_cb/arsize" does not have read access. Use switch +access +r for this region.
# KERNEL: Warning: KERNEL_0085 "/top/s_axi_if/DRV_MOD_slave/slv_drv_cb/arvalid" does not have read access. Use switch +access +r for this region.
# KERNEL: Warning: KERNEL_0085 "/top/s_axi_if/DRV_MOD_slave/slv_drv_cb/rdata" does not have read access. Use switch +access +r for this region.
# KERNEL: Warning: KERNEL_0085 "/top/s_axi_if/DRV_MOD_slave/slv_drv_cb/rid" does not have read access. Use switch +access +r for this region.
# KERNEL: Warning: KERNEL_0085 "/top/s_axi_if/DRV_MOD_slave/slv_drv_cb/rlast" does not have read access. Use switch +access +r for this region.
# KERNEL: Warning: KERNEL_0085 "/top/s_axi_if/DRV_MOD_slave/slv_drv_cb/rready" does not have read access. Use switch +access +r for this region.
# KERNEL: Warning: KERNEL_0085 "/top/s_axi_if/DRV_MOD_slave/slv_drv_cb/rresp" does not have read access. Use switch +access +r for this region.
# KERNEL: Warning: KERNEL_0085 "/top/s_axi_if/DRV_MOD_slave/slv_drv_cb/rvalid" does not have read access. Use switch +access +r for this region.
# KERNEL: Warning: KERNEL_0085 "/top/s_axi_if/DRV_MOD_slave/slv_drv_cb/awaddr" does not have read access. Use switch +access +r for this region.
# KERNEL: Warning: KERNEL_0085 "/top/s_axi_if/DRV_MOD_slave/slv_drv_cb/awburst" does not have read access. Use switch +access +r for this region.
# KERNEL: Warning: KERNEL_0085 "/top/s_axi_if/DRV_MOD_slave/slv_drv_cb/awcache" does not have read access. Use switch +access +r for this region.
# KERNEL: Warning: KERNEL_0085 "/top/s_axi_if/DRV_MOD_slave/slv_drv_cb/awid" does not have read access. Use switch +access +r for this region.
# KERNEL: Warning: KERNEL_0085 "/top/s_axi_if/DRV_MOD_slave/slv_drv_cb/awlen" does not have read access. Use switch +access +r for this region.
# KERNEL: Warning: KERNEL_0085 "/top/s_axi_if/DRV_MOD_slave/slv_drv_cb/awlock" does not have read access. Use switch +access +r for this region.
# KERNEL: Warning: KERNEL_0085 "/top/s_axi_if/DRV_MOD_slave/slv_drv_cb/awprot" does not have read access. Use switch +access +r for this region.
# KERNEL: Warning: KERNEL_0085 "/top/s_axi_if/DRV_MOD_slave/slv_drv_cb/awqos" does not have read access. Use switch +access +r for this region.
# KERNEL: Warning: KERNEL_0085 "/top/s_axi_if/DRV_MOD_slave/slv_drv_cb/awready" does not have read access. Use switch +access +r for this region.
# KERNEL: Warning: KERNEL_0085 "/top/s_axi_if/DRV_MOD_slave/slv_drv_cb/awregion" does not have read access. Use switch +access +r for this region.
# KERNEL: Warning: KERNEL_0085 "/top/s_axi_if/DRV_MOD_slave/slv_drv_cb/awsize" does not have read access. Use switch +access +r for this region.
# KERNEL: Warning: KERNEL_0085 "/top/s_axi_if/DRV_MOD_slave/slv_drv_cb/awvalid" does not have read access. Use switch +access +r for this region.
# KERNEL: Warning: KERNEL_0085 "/top/s_axi_if/DRV_MOD_slave/slv_drv_cb/bready" does not have read access. Use switch +access +r for this region.
# KERNEL: Warning: KERNEL_0085 "/top/s_axi_if/DRV_MOD_slave/slv_drv_cb/bresp" does not have read access. Use switch +access +r for this region.
# KERNEL: Warning: KERNEL_0085 "/top/s_axi_if/DRV_MOD_slave/slv_drv_cb/bid" does not have read access. Use switch +access +r for this region.
# KERNEL: Warning: KERNEL_0085 "/top/s_axi_if/DRV_MOD_slave/slv_drv_cb/bvalid" does not have read access. Use switch +access +r for this region.
# KERNEL: Warning: KERNEL_0085 "/top/s_axi_if/DRV_MOD_slave/slv_drv_cb/wdata" does not have read access. Use switch +access +r for this region.
# KERNEL: Warning: KERNEL_0085 "/top/s_axi_if/DRV_MOD_slave/slv_drv_cb/wlast" does not have read access. Use switch +access +r for this region.
# KERNEL: Warning: KERNEL_0085 "/top/s_axi_if/DRV_MOD_slave/slv_drv_cb/wready" does not have read access. Use switch +access +r for this region.
# KERNEL: Warning: KERNEL_0085 "/top/s_axi_if/DRV_MOD_slave/slv_drv_cb/wstrobe" does not have read access. Use switch +access +r for this region.
# KERNEL: Warning: KERNEL_0085 "/top/s_axi_if/DRV_MOD_slave/slv_drv_cb/wvalid" does not have read access. Use switch +access +r for this region.
# KERNEL: Warning: KERNEL_0085 "/top/s_axi_if/MON_MOD_slave/areset_n" does not have read access. Use switch +access +r for this region.
# KERNEL: Warning: KERNEL_0085 "/top/s_axi_if/MON_MOD_slave/*slv_mon_cb_clocking_event" does not have read access. Use switch +access +r for this region.
# KERNEL: Warning: KERNEL_0085 "/top/s_axi_if/MON_MOD_slave/\slv_mon_cb.arid \" does not have read access. Use switch +access +r for this region.
# KERNEL: Warning: KERNEL_0085 "/top/s_axi_if/MON_MOD_slave/\slv_mon_cb.araddr \" does not have read access. Use switch +access +r for this region.
# KERNEL: Warning: KERNEL_0085 "/top/s_axi_if/MON_MOD_slave/\slv_mon_cb.arlen \" does not have read access. Use switch +access +r for this region.
# KERNEL: Warning: KERNEL_0085 "/top/s_axi_if/MON_MOD_slave/\slv_mon_cb.arburst \" does not have read access. Use switch +access +r for this region.
# KERNEL: Warning: KERNEL_0085 "/top/s_axi_if/MON_MOD_slave/\slv_mon_cb.arsize \" does not have read access. Use switch +access +r for this region.
# KERNEL: Warning: KERNEL_0085 "/top/s_axi_if/MON_MOD_slave/\slv_mon_cb.arvalid \" does not have read access. Use switch +access +r for this region.
# KERNEL: Warning: KERNEL_0085 "/top/s_axi_if/MON_MOD_slave/\slv_mon_cb.rready \" does not have read access. Use switch +access +r for this region.
# KERNEL: Warning: KERNEL_0085 "/top/s_axi_if/MON_MOD_slave/\slv_mon_cb.arready \" does not have read access. Use switch +access +r for this region.
# KERNEL: Warning: KERNEL_0085 "/top/s_axi_if/MON_MOD_slave/\slv_mon_cb.rid \" does not have read access. Use switch +access +r for this region.
# KERNEL: Warning: KERNEL_0085 "/top/s_axi_if/MON_MOD_slave/\slv_mon_cb.rresp \" does not have read access. Use switch +access +r for this region.
# KERNEL: Warning: KERNEL_0085 "/top/s_axi_if/MON_MOD_slave/\slv_mon_cb.rdata \" does not have read access. Use switch +access +r for this region.
# KERNEL: Warning: KERNEL_0085 "/top/s_axi_if/MON_MOD_slave/\slv_mon_cb.rlast \" does not have read access. Use switch +access +r for this region.
# KERNEL: Warning: KERNEL_0085 "/top/s_axi_if/MON_MOD_slave/\slv_mon_cb.rvalid \" does not have read access. Use switch +access +r for this region.
# KERNEL: Warning: KERNEL_0085 "/top/s_axi_if/MON_MOD_slave/\slv_mon_cb.arlock \" does not have read access. Use switch +access +r for this region.
# KERNEL: Warning: KERNEL_0085 "/top/s_axi_if/MON_MOD_slave/\slv_mon_cb.arprot \" does not have read access. Use switch +access +r for this region.
# KERNEL: Warning: KERNEL_0085 "/top/s_axi_if/MON_MOD_slave/\slv_mon_cb.arqos \" does not have read access. Use switch +access +r for this region.
# KERNEL: Warning: KERNEL_0085 "/top/s_axi_if/MON_MOD_slave/\slv_mon_cb.arregion \" does not have read access. Use switch +access +r for this region.
# KERNEL: Warning: KERNEL_0085 "/top/s_axi_if/MON_MOD_slave/\slv_mon_cb.arcache \" does not have read access. Use switch +access +r for this region.
# KERNEL: Warning: KERNEL_0085 "/top/s_axi_if/MON_MOD_slave/\slv_mon_cb.awid \" does not have read access. Use switch +access +r for this region.
# KERNEL: Warning: KERNEL_0085 "/top/s_axi_if/MON_MOD_slave/\slv_mon_cb.awaddr \" does not have read access. Use switch +access +r for this region.
# KERNEL: Warning: KERNEL_0085 "/top/s_axi_if/MON_MOD_slave/\slv_mon_cb.awlen \" does not have read access. Use switch +access +r for this region.
# KERNEL: Warning: KERNEL_0085 "/top/s_axi_if/MON_MOD_slave/\slv_mon_cb.awburst \" does not have read access. Use switch +access +r for this region.
# KERNEL: Warning: KERNEL_0085 "/top/s_axi_if/MON_MOD_slave/\slv_mon_cb.awsize \" does not have read access. Use switch +access +r for this region.
# KERNEL: Warning: KERNEL_0085 "/top/s_axi_if/MON_MOD_slave/\slv_mon_cb.awvalid \" does not have read access. Use switch +access +r for this region.
# KERNEL: Warning: KERNEL_0085 "/top/s_axi_if/MON_MOD_slave/\slv_mon_cb.awready \" does not have read access. Use switch +access +r for this region.
# KERNEL: Warning: KERNEL_0085 "/top/s_axi_if/MON_MOD_slave/\slv_mon_cb.bid \" does not have read access. Use switch +access +r for this region.
# KERNEL: Warning: KERNEL_0085 "/top/s_axi_if/MON_MOD_slave/\slv_mon_cb.bresp \" does not have read access. Use switch +access +r for this region.
# KERNEL: Warning: KERNEL_0085 "/top/s_axi_if/MON_MOD_slave/\slv_mon_cb.bvalid \" does not have read access. Use switch +access +r for this region.
# KERNEL: Warning: KERNEL_0085 "/top/s_axi_if/MON_MOD_slave/\slv_mon_cb.bready \" does not have read access. Use switch +access +r for this region.
# KERNEL: Warning: KERNEL_0085 "/top/s_axi_if/MON_MOD_slave/\slv_mon_cb.wdata \" does not have read access. Use switch +access +r for this region.
# KERNEL: Warning: KERNEL_0085 "/top/s_axi_if/MON_MOD_slave/\slv_mon_cb.wstrobe \" does not have read access. Use switch +access +r for this region.
# KERNEL: Warning: KERNEL_0085 "/top/s_axi_if/MON_MOD_slave/\slv_mon_cb.wlast \" does not have read access. Use switch +access +r for this region.
# KERNEL: Warning: KERNEL_0085 "/top/s_axi_if/MON_MOD_slave/\slv_mon_cb.wvalid \" does not have read access. Use switch +access +r for this region.
# KERNEL: Warning: KERNEL_0085 "/top/s_axi_if/MON_MOD_slave/\slv_mon_cb.wready \" does not have read access. Use switch +access +r for this region.
# KERNEL: Warning: KERNEL_0085 "/top/s_axi_if/MON_MOD_slave/\slv_mon_cb.awlock \" does not have read access. Use switch +access +r for this region.
# KERNEL: Warning: KERNEL_0085 "/top/s_axi_if/MON_MOD_slave/\slv_mon_cb.awprot \" does not have read access. Use switch +access +r for this region.
# KERNEL: Warning: KERNEL_0085 "/top/s_axi_if/MON_MOD_slave/\slv_mon_cb.awqos \" does not have read access. Use switch +access +r for this region.
# KERNEL: Warning: KERNEL_0085 "/top/s_axi_if/MON_MOD_slave/\slv_mon_cb.awregion \" does not have read access. Use switch +access +r for this region.
# KERNEL: Warning: KERNEL_0085 "/top/s_axi_if/MON_MOD_slave/\slv_mon_cb.awcache \" does not have read access. Use switch +access +r for this region.
# KERNEL: Warning: KERNEL_0085 "/top/s_axi_if/MON_MOD_slave/slv_mon_cb/slv_mon_cb" does not have read access. Use switch +access +r for this region.
# KERNEL: Warning: KERNEL_0085 "/top/s_axi_if/MON_MOD_slave/slv_mon_cb/arid" does not have read access. Use switch +access +r for this region.
# KERNEL: Warning: KERNEL_0085 "/top/s_axi_if/MON_MOD_slave/slv_mon_cb/araddr" does not have read access. Use switch +access +r for this region.
# KERNEL: Warning: KERNEL_0085 "/top/s_axi_if/MON_MOD_slave/slv_mon_cb/arlen" does not have read access. Use switch +access +r for this region.
# KERNEL: Warning: KERNEL_0085 "/top/s_axi_if/MON_MOD_slave/slv_mon_cb/arburst" does not have read access. Use switch +access +r for this region.
# KERNEL: Warning: KERNEL_0085 "/top/s_axi_if/MON_MOD_slave/slv_mon_cb/arsize" does not have read access. Use switch +access +r for this region.
# KERNEL: Warning: KERNEL_0085 "/top/s_axi_if/MON_MOD_slave/slv_mon_cb/arvalid" does not have read access. Use switch +access +r for this region.
# KERNEL: Warning: KERNEL_0085 "/top/s_axi_if/MON_MOD_slave/slv_mon_cb/rready" does not have read access. Use switch +access +r for this region.
# KERNEL: Warning: KERNEL_0085 "/top/s_axi_if/MON_MOD_slave/slv_mon_cb/arready" does not have read access. Use switch +access +r for this region.
# KERNEL: Warning: KERNEL_0085 "/top/s_axi_if/MON_MOD_slave/slv_mon_cb/rid" does not have read access. Use switch +access +r for this region.
# KERNEL: Warning: KERNEL_0085 "/top/s_axi_if/MON_MOD_slave/slv_mon_cb/rresp" does not have read access. Use switch +access +r for this region.
# KERNEL: Warning: KERNEL_0085 "/top/s_axi_if/MON_MOD_slave/slv_mon_cb/rdata" does not have read access. Use switch +access +r for this region.
# KERNEL: Warning: KERNEL_0085 "/top/s_axi_if/MON_MOD_slave/slv_mon_cb/rlast" does not have read access. Use switch +access +r for this region.
# KERNEL: Warning: KERNEL_0085 "/top/s_axi_if/MON_MOD_slave/slv_mon_cb/rvalid" does not have read access. Use switch +access +r for this region.
# KERNEL: Warning: KERNEL_0085 "/top/s_axi_if/MON_MOD_slave/slv_mon_cb/arlock" does not have read access. Use switch +access +r for this region.
# KERNEL: Warning: KERNEL_0085 "/top/s_axi_if/MON_MOD_slave/slv_mon_cb/arprot" does not have read access. Use switch +access +r for this region.
# KERNEL: Warning: KERNEL_0085 "/top/s_axi_if/MON_MOD_slave/slv_mon_cb/arqos" does not have read access. Use switch +access +r for this region.
# KERNEL: Warning: KERNEL_0085 "/top/s_axi_if/MON_MOD_slave/slv_mon_cb/arregion" does not have read access. Use switch +access +r for this region.
# KERNEL: Warning: KERNEL_0085 "/top/s_axi_if/MON_MOD_slave/slv_mon_cb/arcache" does not have read access. Use switch +access +r for this region.
# KERNEL: Warning: KERNEL_0085 "/top/s_axi_if/MON_MOD_slave/slv_mon_cb/awid" does not have read access. Use switch +access +r for this region.
# KERNEL: Warning: KERNEL_0085 "/top/s_axi_if/MON_MOD_slave/slv_mon_cb/awaddr" does not have read access. Use switch +access +r for this region.
# KERNEL: Warning: KERNEL_0085 "/top/s_axi_if/MON_MOD_slave/slv_mon_cb/awlen" does not have read access. Use switch +access +r for this region.
# KERNEL: Warning: KERNEL_0085 "/top/s_axi_if/MON_MOD_slave/slv_mon_cb/awburst" does not have read access. Use switch +access +r for this region.
# KERNEL: Warning: KERNEL_0085 "/top/s_axi_if/MON_MOD_slave/slv_mon_cb/awsize" does not have read access. Use switch +access +r for this region.
# KERNEL: Warning: KERNEL_0085 "/top/s_axi_if/MON_MOD_slave/slv_mon_cb/awvalid" does not have read access. Use switch +access +r for this region.
# KERNEL: Warning: KERNEL_0085 "/top/s_axi_if/MON_MOD_slave/slv_mon_cb/awready" does not have read access. Use switch +access +r for this region.
# KERNEL: Warning: KERNEL_0085 "/top/s_axi_if/MON_MOD_slave/slv_mon_cb/bid" does not have read access. Use switch +access +r for this region.
# KERNEL: Warning: KERNEL_0085 "/top/s_axi_if/MON_MOD_slave/slv_mon_cb/bresp" does not have read access. Use switch +access +r for this region.
# KERNEL: Warning: KERNEL_0085 "/top/s_axi_if/MON_MOD_slave/slv_mon_cb/bvalid" does not have read access. Use switch +access +r for this region.
# KERNEL: Warning: KERNEL_0085 "/top/s_axi_if/MON_MOD_slave/slv_mon_cb/bready" does not have read access. Use switch +access +r for this region.
# KERNEL: Warning: KERNEL_0085 "/top/s_axi_if/MON_MOD_slave/slv_mon_cb/wdata" does not have read access. Use switch +access +r for this region.
# KERNEL: Warning: KERNEL_0085 "/top/s_axi_if/MON_MOD_slave/slv_mon_cb/wstrobe" does not have read access. Use switch +access +r for this region.
# KERNEL: Warning: KERNEL_0085 "/top/s_axi_if/MON_MOD_slave/slv_mon_cb/wlast" does not have read access. Use switch +access +r for this region.
# KERNEL: Warning: KERNEL_0085 "/top/s_axi_if/MON_MOD_slave/slv_mon_cb/wvalid" does not have read access. Use switch +access +r for this region.
# KERNEL: Warning: KERNEL_0085 "/top/s_axi_if/MON_MOD_slave/slv_mon_cb/wready" does not have read access. Use switch +access +r for this region.
# KERNEL: Warning: KERNEL_0085 "/top/s_axi_if/MON_MOD_slave/slv_mon_cb/awlock" does not have read access. Use switch +access +r for this region.
# KERNEL: Warning: KERNEL_0085 "/top/s_axi_if/MON_MOD_slave/slv_mon_cb/awprot" does not have read access. Use switch +access +r for this region.
# KERNEL: Warning: KERNEL_0085 "/top/s_axi_if/MON_MOD_slave/slv_mon_cb/awqos" does not have read access. Use switch +access +r for this region.
# KERNEL: Warning: KERNEL_0085 "/top/s_axi_if/MON_MOD_slave/slv_mon_cb/awregion" does not have read access. Use switch +access +r for this region.
# KERNEL: Warning: KERNEL_0085 "/top/s_axi_if/MON_MOD_slave/slv_mon_cb/awcache" does not have read access. Use switch +access +r for this region.
# VSIM: 119 object(s) traced.
# KERNEL: Warning: KERNEL_0085 "/top/s_axi_sg_if/DRV_MOD_slave/areset_n" does not have read access. Use switch +access +r for this region.
# KERNEL: Warning: KERNEL_0085 "/top/s_axi_sg_if/DRV_MOD_slave/*slv_drv_cb_clocking_event" does not have read access. Use switch +access +r for this region.
# KERNEL: Warning: KERNEL_0085 "/top/s_axi_sg_if/DRV_MOD_slave/\slv_drv_cb.araddr \" does not have read access. Use switch +access +r for this region.
# KERNEL: Warning: KERNEL_0085 "/top/s_axi_sg_if/DRV_MOD_slave/\slv_drv_cb.arburst \" does not have read access. Use switch +access +r for this region.
# KERNEL: Warning: KERNEL_0085 "/top/s_axi_sg_if/DRV_MOD_slave/\slv_drv_cb.arcache \" does not have read access. Use switch +access +r for this region.
# KERNEL: Warning: KERNEL_0085 "/top/s_axi_sg_if/DRV_MOD_slave/\slv_drv_cb.arlen \" does not have read access. Use switch +access +r for this region.
# KERNEL: Warning: KERNEL_0085 "/top/s_axi_sg_if/DRV_MOD_slave/\slv_drv_cb.arlock \" does not have read access. Use switch +access +r for this region.
# KERNEL: Warning: KERNEL_0085 "/top/s_axi_sg_if/DRV_MOD_slave/\slv_drv_cb.arprot \" does not have read access. Use switch +access +r for this region.
# KERNEL: Warning: KERNEL_0085 "/top/s_axi_sg_if/DRV_MOD_slave/\slv_drv_cb.arid \" does not have read access. Use switch +access +r for this region.
# KERNEL: Warning: KERNEL_0085 "/top/s_axi_sg_if/DRV_MOD_slave/\slv_drv_cb.arqos \" does not have read access. Use switch +access +r for this region.
# KERNEL: Warning: KERNEL_0085 "/top/s_axi_sg_if/DRV_MOD_slave/\slv_drv_cb.arready \" does not have read access. Use switch +access +r for this region.
# KERNEL: Warning: KERNEL_0085 "/top/s_axi_sg_if/DRV_MOD_slave/\slv_drv_cb.arregion \" does not have read access. Use switch +access +r for this region.
# KERNEL: Warning: KERNEL_0085 "/top/s_axi_sg_if/DRV_MOD_slave/\slv_drv_cb.arsize \" does not have read access. Use switch +access +r for this region.
# KERNEL: Warning: KERNEL_0085 "/top/s_axi_sg_if/DRV_MOD_slave/\slv_drv_cb.arvalid \" does not have read access. Use switch +access +r for this region.
# KERNEL: Warning: KERNEL_0085 "/top/s_axi_sg_if/DRV_MOD_slave/\slv_drv_cb.rdata \" does not have read access. Use switch +access +r for this region.
# KERNEL: Warning: KERNEL_0085 "/top/s_axi_sg_if/DRV_MOD_slave/\slv_drv_cb.rid \" does not have read access. Use switch +access +r for this region.
# KERNEL: Warning: KERNEL_0085 "/top/s_axi_sg_if/DRV_MOD_slave/\slv_drv_cb.rlast \" does not have read access. Use switch +access +r for this region.
# KERNEL: Warning: KERNEL_0085 "/top/s_axi_sg_if/DRV_MOD_slave/\slv_drv_cb.rready \" does not have read access. Use switch +access +r for this region.
# KERNEL: Warning: KERNEL_0085 "/top/s_axi_sg_if/DRV_MOD_slave/\slv_drv_cb.rresp \" does not have read access. Use switch +access +r for this region.
# KERNEL: Warning: KERNEL_0085 "/top/s_axi_sg_if/DRV_MOD_slave/\slv_drv_cb.rvalid \" does not have read access. Use switch +access +r for this region.
# KERNEL: Warning: KERNEL_0085 "/top/s_axi_sg_if/DRV_MOD_slave/\slv_drv_cb.awaddr \" does not have read access. Use switch +access +r for this region.
# KERNEL: Warning: KERNEL_0085 "/top/s_axi_sg_if/DRV_MOD_slave/\slv_drv_cb.awburst \" does not have read access. Use switch +access +r for this region.
# KERNEL: Warning: KERNEL_0085 "/top/s_axi_sg_if/DRV_MOD_slave/\slv_drv_cb.awcache \" does not have read access. Use switch +access +r for this region.
# KERNEL: Warning: KERNEL_0085 "/top/s_axi_sg_if/DRV_MOD_slave/\slv_drv_cb.awid \" does not have read access. Use switch +access +r for this region.
# KERNEL: Warning: KERNEL_0085 "/top/s_axi_sg_if/DRV_MOD_slave/\slv_drv_cb.awlen \" does not have read access. Use switch +access +r for this region.
# KERNEL: Warning: KERNEL_0085 "/top/s_axi_sg_if/DRV_MOD_slave/\slv_drv_cb.awlock \" does not have read access. Use switch +access +r for this region.
# KERNEL: Warning: KERNEL_0085 "/top/s_axi_sg_if/DRV_MOD_slave/\slv_drv_cb.awprot \" does not have read access. Use switch +access +r for this region.
# KERNEL: Warning: KERNEL_0085 "/top/s_axi_sg_if/DRV_MOD_slave/\slv_drv_cb.awqos \" does not have read access. Use switch +access +r for this region.
# KERNEL: Warning: KERNEL_0085 "/top/s_axi_sg_if/DRV_MOD_slave/\slv_drv_cb.awready \" does not have read access. Use switch +access +r for this region.
# KERNEL: Warning: KERNEL_0085 "/top/s_axi_sg_if/DRV_MOD_slave/\slv_drv_cb.awregion \" does not have read access. Use switch +access +r for this region.
# KERNEL: Warning: KERNEL_0085 "/top/s_axi_sg_if/DRV_MOD_slave/\slv_drv_cb.awsize \" does not have read access. Use switch +access +r for this region.
# KERNEL: Warning: KERNEL_0085 "/top/s_axi_sg_if/DRV_MOD_slave/\slv_drv_cb.awvalid \" does not have read access. Use switch +access +r for this region.
# KERNEL: Warning: KERNEL_0085 "/top/s_axi_sg_if/DRV_MOD_slave/\slv_drv_cb.bready \" does not have read access. Use switch +access +r for this region.
# KERNEL: Warning: KERNEL_0085 "/top/s_axi_sg_if/DRV_MOD_slave/\slv_drv_cb.bresp \" does not have read access. Use switch +access +r for this region.
# KERNEL: Warning: KERNEL_0085 "/top/s_axi_sg_if/DRV_MOD_slave/\slv_drv_cb.bid \" does not have read access. Use switch +access +r for this region.
# KERNEL: Warning: KERNEL_0085 "/top/s_axi_sg_if/DRV_MOD_slave/\slv_drv_cb.bvalid \" does not have read access. Use switch +access +r for this region.
# KERNEL: Warning: KERNEL_0085 "/top/s_axi_sg_if/DRV_MOD_slave/\slv_drv_cb.wdata \" does not have read access. Use switch +access +r for this region.
# KERNEL: Warning: KERNEL_0085 "/top/s_axi_sg_if/DRV_MOD_slave/\slv_drv_cb.wlast \" does not have read access. Use switch +access +r for this region.
# KERNEL: Warning: KERNEL_0085 "/top/s_axi_sg_if/DRV_MOD_slave/\slv_drv_cb.wready \" does not have read access. Use switch +access +r for this region.
# KERNEL: Warning: KERNEL_0085 "/top/s_axi_sg_if/DRV_MOD_slave/\slv_drv_cb.wstrobe \" does not have read access. Use switch +access +r for this region.
# KERNEL: Warning: KERNEL_0085 "/top/s_axi_sg_if/DRV_MOD_slave/\slv_drv_cb.wvalid \" does not have read access. Use switch +access +r for this region.
# KERNEL: Warning: KERNEL_0085 "/top/s_axi_sg_if/DRV_MOD_slave/slv_drv_cb/slv_drv_cb" does not have read access. Use switch +access +r for this region.
# KERNEL: Warning: KERNEL_0085 "/top/s_axi_sg_if/DRV_MOD_slave/slv_drv_cb/araddr" does not have read access. Use switch +access +r for this region.
# KERNEL: Warning: KERNEL_0085 "/top/s_axi_sg_if/DRV_MOD_slave/slv_drv_cb/arburst" does not have read access. Use switch +access +r for this region.
# KERNEL: Warning: KERNEL_0085 "/top/s_axi_sg_if/DRV_MOD_slave/slv_drv_cb/arcache" does not have read access. Use switch +access +r for this region.
# KERNEL: Warning: KERNEL_0085 "/top/s_axi_sg_if/DRV_MOD_slave/slv_drv_cb/arlen" does not have read access. Use switch +access +r for this region.
# KERNEL: Warning: KERNEL_0085 "/top/s_axi_sg_if/DRV_MOD_slave/slv_drv_cb/arlock" does not have read access. Use switch +access +r for this region.
# KERNEL: Warning: KERNEL_0085 "/top/s_axi_sg_if/DRV_MOD_slave/slv_drv_cb/arprot" does not have read access. Use switch +access +r for this region.
# KERNEL: Warning: KERNEL_0085 "/top/s_axi_sg_if/DRV_MOD_slave/slv_drv_cb/arid" does not have read access. Use switch +access +r for this region.
# KERNEL: Warning: KERNEL_0085 "/top/s_axi_sg_if/DRV_MOD_slave/slv_drv_cb/arqos" does not have read access. Use switch +access +r for this region.
# KERNEL: Warning: KERNEL_0085 "/top/s_axi_sg_if/DRV_MOD_slave/slv_drv_cb/arready" does not have read access. Use switch +access +r for this region.
# KERNEL: Warning: KERNEL_0085 "/top/s_axi_sg_if/DRV_MOD_slave/slv_drv_cb/arregion" does not have read access. Use switch +access +r for this region.
# KERNEL: Warning: KERNEL_0085 "/top/s_axi_sg_if/DRV_MOD_slave/slv_drv_cb/arsize" does not have read access. Use switch +access +r for this region.
# KERNEL: Warning: KERNEL_0085 "/top/s_axi_sg_if/DRV_MOD_slave/slv_drv_cb/arvalid" does not have read access. Use switch +access +r for this region.
# KERNEL: Warning: KERNEL_0085 "/top/s_axi_sg_if/DRV_MOD_slave/slv_drv_cb/rdata" does not have read access. Use switch +access +r for this region.
# KERNEL: Warning: KERNEL_0085 "/top/s_axi_sg_if/DRV_MOD_slave/slv_drv_cb/rid" does not have read access. Use switch +access +r for this region.
# KERNEL: Warning: KERNEL_0085 "/top/s_axi_sg_if/DRV_MOD_slave/slv_drv_cb/rlast" does not have read access. Use switch +access +r for this region.
# KERNEL: Warning: KERNEL_0085 "/top/s_axi_sg_if/DRV_MOD_slave/slv_drv_cb/rready" does not have read access. Use switch +access +r for this region.
# KERNEL: Warning: KERNEL_0085 "/top/s_axi_sg_if/DRV_MOD_slave/slv_drv_cb/rresp" does not have read access. Use switch +access +r for this region.
# KERNEL: Warning: KERNEL_0085 "/top/s_axi_sg_if/DRV_MOD_slave/slv_drv_cb/rvalid" does not have read access. Use switch +access +r for this region.
# KERNEL: Warning: KERNEL_0085 "/top/s_axi_sg_if/DRV_MOD_slave/slv_drv_cb/awaddr" does not have read access. Use switch +access +r for this region.
# KERNEL: Warning: KERNEL_0085 "/top/s_axi_sg_if/DRV_MOD_slave/slv_drv_cb/awburst" does not have read access. Use switch +access +r for this region.
# KERNEL: Warning: KERNEL_0085 "/top/s_axi_sg_if/DRV_MOD_slave/slv_drv_cb/awcache" does not have read access. Use switch +access +r for this region.
# KERNEL: Warning: KERNEL_0085 "/top/s_axi_sg_if/DRV_MOD_slave/slv_drv_cb/awid" does not have read access. Use switch +access +r for this region.
# KERNEL: Warning: KERNEL_0085 "/top/s_axi_sg_if/DRV_MOD_slave/slv_drv_cb/awlen" does not have read access. Use switch +access +r for this region.
# KERNEL: Warning: KERNEL_0085 "/top/s_axi_sg_if/DRV_MOD_slave/slv_drv_cb/awlock" does not have read access. Use switch +access +r for this region.
# KERNEL: Warning: KERNEL_0085 "/top/s_axi_sg_if/DRV_MOD_slave/slv_drv_cb/awprot" does not have read access. Use switch +access +r for this region.
# KERNEL: Warning: KERNEL_0085 "/top/s_axi_sg_if/DRV_MOD_slave/slv_drv_cb/awqos" does not have read access. Use switch +access +r for this region.
# KERNEL: Warning: KERNEL_0085 "/top/s_axi_sg_if/DRV_MOD_slave/slv_drv_cb/awready" does not have read access. Use switch +access +r for this region.
# KERNEL: Warning: KERNEL_0085 "/top/s_axi_sg_if/DRV_MOD_slave/slv_drv_cb/awregion" does not have read access. Use switch +access +r for this region.
# KERNEL: Warning: KERNEL_0085 "/top/s_axi_sg_if/DRV_MOD_slave/slv_drv_cb/awsize" does not have read access. Use switch +access +r for this region.
# KERNEL: Warning: KERNEL_0085 "/top/s_axi_sg_if/DRV_MOD_slave/slv_drv_cb/awvalid" does not have read access. Use switch +access +r for this region.
# KERNEL: Warning: KERNEL_0085 "/top/s_axi_sg_if/DRV_MOD_slave/slv_drv_cb/bready" does not have read access. Use switch +access +r for this region.
# KERNEL: Warning: KERNEL_0085 "/top/s_axi_sg_if/DRV_MOD_slave/slv_drv_cb/bresp" does not have read access. Use switch +access +r for this region.
# KERNEL: Warning: KERNEL_0085 "/top/s_axi_sg_if/DRV_MOD_slave/slv_drv_cb/bid" does not have read access. Use switch +access +r for this region.
# KERNEL: Warning: KERNEL_0085 "/top/s_axi_sg_if/DRV_MOD_slave/slv_drv_cb/bvalid" does not have read access. Use switch +access +r for this region.
# KERNEL: Warning: KERNEL_0085 "/top/s_axi_sg_if/DRV_MOD_slave/slv_drv_cb/wdata" does not have read access. Use switch +access +r for this region.
# KERNEL: Warning: KERNEL_0085 "/top/s_axi_sg_if/DRV_MOD_slave/slv_drv_cb/wlast" does not have read access. Use switch +access +r for this region.
# KERNEL: Warning: KERNEL_0085 "/top/s_axi_sg_if/DRV_MOD_slave/slv_drv_cb/wready" does not have read access. Use switch +access +r for this region.
# KERNEL: Warning: KERNEL_0085 "/top/s_axi_sg_if/DRV_MOD_slave/slv_drv_cb/wstrobe" does not have read access. Use switch +access +r for this region.
# KERNEL: Warning: KERNEL_0085 "/top/s_axi_sg_if/DRV_MOD_slave/slv_drv_cb/wvalid" does not have read access. Use switch +access +r for this region.
# KERNEL: Warning: KERNEL_0085 "/top/s_axi_sg_if/MON_MOD_slave/areset_n" does not have read access. Use switch +access +r for this region.
# KERNEL: Warning: KERNEL_0085 "/top/s_axi_sg_if/MON_MOD_slave/*slv_mon_cb_clocking_event" does not have read access. Use switch +access +r for this region.
# KERNEL: Warning: KERNEL_0085 "/top/s_axi_sg_if/MON_MOD_slave/\slv_mon_cb.arid \" does not have read access. Use switch +access +r for this region.
# KERNEL: Warning: KERNEL_0085 "/top/s_axi_sg_if/MON_MOD_slave/\slv_mon_cb.araddr \" does not have read access. Use switch +access +r for this region.
# KERNEL: Warning: KERNEL_0085 "/top/s_axi_sg_if/MON_MOD_slave/\slv_mon_cb.arlen \" does not have read access. Use switch +access +r for this region.
# KERNEL: Warning: KERNEL_0085 "/top/s_axi_sg_if/MON_MOD_slave/\slv_mon_cb.arburst \" does not have read access. Use switch +access +r for this region.
# KERNEL: Warning: KERNEL_0085 "/top/s_axi_sg_if/MON_MOD_slave/\slv_mon_cb.arsize \" does not have read access. Use switch +access +r for this region.
# KERNEL: Warning: KERNEL_0085 "/top/s_axi_sg_if/MON_MOD_slave/\slv_mon_cb.arvalid \" does not have read access. Use switch +access +r for this region.
# KERNEL: Warning: KERNEL_0085 "/top/s_axi_sg_if/MON_MOD_slave/\slv_mon_cb.rready \" does not have read access. Use switch +access +r for this region.
# KERNEL: Warning: KERNEL_0085 "/top/s_axi_sg_if/MON_MOD_slave/\slv_mon_cb.arready \" does not have read access. Use switch +access +r for this region.
# KERNEL: Warning: KERNEL_0085 "/top/s_axi_sg_if/MON_MOD_slave/\slv_mon_cb.rid \" does not have read access. Use switch +access +r for this region.
# KERNEL: Warning: KERNEL_0085 "/top/s_axi_sg_if/MON_MOD_slave/\slv_mon_cb.rresp \" does not have read access. Use switch +access +r for this region.
# KERNEL: Warning: KERNEL_0085 "/top/s_axi_sg_if/MON_MOD_slave/\slv_mon_cb.rdata \" does not have read access. Use switch +access +r for this region.
# KERNEL: Warning: KERNEL_0085 "/top/s_axi_sg_if/MON_MOD_slave/\slv_mon_cb.rlast \" does not have read access. Use switch +access +r for this region.
# KERNEL: Warning: KERNEL_0085 "/top/s_axi_sg_if/MON_MOD_slave/\slv_mon_cb.rvalid \" does not have read access. Use switch +access +r for this region.
# KERNEL: Warning: KERNEL_0085 "/top/s_axi_sg_if/MON_MOD_slave/\slv_mon_cb.arlock \" does not have read access. Use switch +access +r for this region.
# KERNEL: Warning: KERNEL_0085 "/top/s_axi_sg_if/MON_MOD_slave/\slv_mon_cb.arprot \" does not have read access. Use switch +access +r for this region.
# KERNEL: Warning: KERNEL_0085 "/top/s_axi_sg_if/MON_MOD_slave/\slv_mon_cb.arqos \" does not have read access. Use switch +access +r for this region.
# KERNEL: Warning: KERNEL_0085 "/top/s_axi_sg_if/MON_MOD_slave/\slv_mon_cb.arregion \" does not have read access. Use switch +access +r for this region.
# KERNEL: Warning: KERNEL_0085 "/top/s_axi_sg_if/MON_MOD_slave/\slv_mon_cb.arcache \" does not have read access. Use switch +access +r for this region.
# KERNEL: Warning: KERNEL_0085 "/top/s_axi_sg_if/MON_MOD_slave/\slv_mon_cb.awid \" does not have read access. Use switch +access +r for this region.
# KERNEL: Warning: KERNEL_0085 "/top/s_axi_sg_if/MON_MOD_slave/\slv_mon_cb.awaddr \" does not have read access. Use switch +access +r for this region.
# KERNEL: Warning: KERNEL_0085 "/top/s_axi_sg_if/MON_MOD_slave/\slv_mon_cb.awlen \" does not have read access. Use switch +access +r for this region.
# KERNEL: Warning: KERNEL_0085 "/top/s_axi_sg_if/MON_MOD_slave/\slv_mon_cb.awburst \" does not have read access. Use switch +access +r for this region.
# KERNEL: Warning: KERNEL_0085 "/top/s_axi_sg_if/MON_MOD_slave/\slv_mon_cb.awsize \" does not have read access. Use switch +access +r for this region.
# KERNEL: Warning: KERNEL_0085 "/top/s_axi_sg_if/MON_MOD_slave/\slv_mon_cb.awvalid \" does not have read access. Use switch +access +r for this region.
# KERNEL: Warning: KERNEL_0085 "/top/s_axi_sg_if/MON_MOD_slave/\slv_mon_cb.awready \" does not have read access. Use switch +access +r for this region.
# KERNEL: Warning: KERNEL_0085 "/top/s_axi_sg_if/MON_MOD_slave/\slv_mon_cb.bid \" does not have read access. Use switch +access +r for this region.
# KERNEL: Warning: KERNEL_0085 "/top/s_axi_sg_if/MON_MOD_slave/\slv_mon_cb.bresp \" does not have read access. Use switch +access +r for this region.
# KERNEL: Warning: KERNEL_0085 "/top/s_axi_sg_if/MON_MOD_slave/\slv_mon_cb.bvalid \" does not have read access. Use switch +access +r for this region.
# KERNEL: Warning: KERNEL_0085 "/top/s_axi_sg_if/MON_MOD_slave/\slv_mon_cb.bready \" does not have read access. Use switch +access +r for this region.
# KERNEL: Warning: KERNEL_0085 "/top/s_axi_sg_if/MON_MOD_slave/\slv_mon_cb.wdata \" does not have read access. Use switch +access +r for this region.
# KERNEL: Warning: KERNEL_0085 "/top/s_axi_sg_if/MON_MOD_slave/\slv_mon_cb.wstrobe \" does not have read access. Use switch +access +r for this region.
# KERNEL: Warning: KERNEL_0085 "/top/s_axi_sg_if/MON_MOD_slave/\slv_mon_cb.wlast \" does not have read access. Use switch +access +r for this region.
# KERNEL: Warning: KERNEL_0085 "/top/s_axi_sg_if/MON_MOD_slave/\slv_mon_cb.wvalid \" does not have read access. Use switch +access +r for this region.
# KERNEL: Warning: KERNEL_0085 "/top/s_axi_sg_if/MON_MOD_slave/\slv_mon_cb.wready \" does not have read access. Use switch +access +r for this region.
# KERNEL: Warning: KERNEL_0085 "/top/s_axi_sg_if/MON_MOD_slave/\slv_mon_cb.awlock \" does not have read access. Use switch +access +r for this region.
# KERNEL: Warning: KERNEL_0085 "/top/s_axi_sg_if/MON_MOD_slave/\slv_mon_cb.awprot \" does not have read access. Use switch +access +r for this region.
# KERNEL: Warning: KERNEL_0085 "/top/s_axi_sg_if/MON_MOD_slave/\slv_mon_cb.awqos \" does not have read access. Use switch +access +r for this region.
# KERNEL: Warning: KERNEL_0085 "/top/s_axi_sg_if/MON_MOD_slave/\slv_mon_cb.awregion \" does not have read access. Use switch +access +r for this region.
# KERNEL: Warning: KERNEL_0085 "/top/s_axi_sg_if/MON_MOD_slave/\slv_mon_cb.awcache \" does not have read access. Use switch +access +r for this region.
# KERNEL: Warning: KERNEL_0085 "/top/s_axi_sg_if/MON_MOD_slave/slv_mon_cb/slv_mon_cb" does not have read access. Use switch +access +r for this region.
# KERNEL: Warning: KERNEL_0085 "/top/s_axi_sg_if/MON_MOD_slave/slv_mon_cb/arid" does not have read access. Use switch +access +r for this region.
# KERNEL: Warning: KERNEL_0085 "/top/s_axi_sg_if/MON_MOD_slave/slv_mon_cb/araddr" does not have read access. Use switch +access +r for this region.
# KERNEL: Warning: KERNEL_0085 "/top/s_axi_sg_if/MON_MOD_slave/slv_mon_cb/arlen" does not have read access. Use switch +access +r for this region.
# KERNEL: Warning: KERNEL_0085 "/top/s_axi_sg_if/MON_MOD_slave/slv_mon_cb/arburst" does not have read access. Use switch +access +r for this region.
# KERNEL: Warning: KERNEL_0085 "/top/s_axi_sg_if/MON_MOD_slave/slv_mon_cb/arsize" does not have read access. Use switch +access +r for this region.
# KERNEL: Warning: KERNEL_0085 "/top/s_axi_sg_if/MON_MOD_slave/slv_mon_cb/arvalid" does not have read access. Use switch +access +r for this region.
# KERNEL: Warning: KERNEL_0085 "/top/s_axi_sg_if/MON_MOD_slave/slv_mon_cb/rready" does not have read access. Use switch +access +r for this region.
# KERNEL: Warning: KERNEL_0085 "/top/s_axi_sg_if/MON_MOD_slave/slv_mon_cb/arready" does not have read access. Use switch +access +r for this region.
# KERNEL: Warning: KERNEL_0085 "/top/s_axi_sg_if/MON_MOD_slave/slv_mon_cb/rid" does not have read access. Use switch +access +r for this region.
# KERNEL: Warning: KERNEL_0085 "/top/s_axi_sg_if/MON_MOD_slave/slv_mon_cb/rresp" does not have read access. Use switch +access +r for this region.
# KERNEL: Warning: KERNEL_0085 "/top/s_axi_sg_if/MON_MOD_slave/slv_mon_cb/rdata" does not have read access. Use switch +access +r for this region.
# KERNEL: Warning: KERNEL_0085 "/top/s_axi_sg_if/MON_MOD_slave/slv_mon_cb/rlast" does not have read access. Use switch +access +r for this region.
# KERNEL: Warning: KERNEL_0085 "/top/s_axi_sg_if/MON_MOD_slave/slv_mon_cb/rvalid" does not have read access. Use switch +access +r for this region.
# KERNEL: Warning: KERNEL_0085 "/top/s_axi_sg_if/MON_MOD_slave/slv_mon_cb/arlock" does not have read access. Use switch +access +r for this region.
# KERNEL: Warning: KERNEL_0085 "/top/s_axi_sg_if/MON_MOD_slave/slv_mon_cb/arprot" does not have read access. Use switch +access +r for this region.
# KERNEL: Warning: KERNEL_0085 "/top/s_axi_sg_if/MON_MOD_slave/slv_mon_cb/arqos" does not have read access. Use switch +access +r for this region.
# KERNEL: Warning: KERNEL_0085 "/top/s_axi_sg_if/MON_MOD_slave/slv_mon_cb/arregion" does not have read access. Use switch +access +r for this region.
# KERNEL: Warning: KERNEL_0085 "/top/s_axi_sg_if/MON_MOD_slave/slv_mon_cb/arcache" does not have read access. Use switch +access +r for this region.
# KERNEL: Warning: KERNEL_0085 "/top/s_axi_sg_if/MON_MOD_slave/slv_mon_cb/awid" does not have read access. Use switch +access +r for this region.
# KERNEL: Warning: KERNEL_0085 "/top/s_axi_sg_if/MON_MOD_slave/slv_mon_cb/awaddr" does not have read access. Use switch +access +r for this region.
# KERNEL: Warning: KERNEL_0085 "/top/s_axi_sg_if/MON_MOD_slave/slv_mon_cb/awlen" does not have read access. Use switch +access +r for this region.
# KERNEL: Warning: KERNEL_0085 "/top/s_axi_sg_if/MON_MOD_slave/slv_mon_cb/awburst" does not have read access. Use switch +access +r for this region.
# KERNEL: Warning: KERNEL_0085 "/top/s_axi_sg_if/MON_MOD_slave/slv_mon_cb/awsize" does not have read access. Use switch +access +r for this region.
# KERNEL: Warning: KERNEL_0085 "/top/s_axi_sg_if/MON_MOD_slave/slv_mon_cb/awvalid" does not have read access. Use switch +access +r for this region.
# KERNEL: Warning: KERNEL_0085 "/top/s_axi_sg_if/MON_MOD_slave/slv_mon_cb/awready" does not have read access. Use switch +access +r for this region.
# KERNEL: Warning: KERNEL_0085 "/top/s_axi_sg_if/MON_MOD_slave/slv_mon_cb/bid" does not have read access. Use switch +access +r for this region.
# KERNEL: Warning: KERNEL_0085 "/top/s_axi_sg_if/MON_MOD_slave/slv_mon_cb/bresp" does not have read access. Use switch +access +r for this region.
# KERNEL: Warning: KERNEL_0085 "/top/s_axi_sg_if/MON_MOD_slave/slv_mon_cb/bvalid" does not have read access. Use switch +access +r for this region.
# KERNEL: Warning: KERNEL_0085 "/top/s_axi_sg_if/MON_MOD_slave/slv_mon_cb/bready" does not have read access. Use switch +access +r for this region.
# KERNEL: Warning: KERNEL_0085 "/top/s_axi_sg_if/MON_MOD_slave/slv_mon_cb/wdata" does not have read access. Use switch +access +r for this region.
# KERNEL: Warning: KERNEL_0085 "/top/s_axi_sg_if/MON_MOD_slave/slv_mon_cb/wstrobe" does not have read access. Use switch +access +r for this region.
# KERNEL: Warning: KERNEL_0085 "/top/s_axi_sg_if/MON_MOD_slave/slv_mon_cb/wlast" does not have read access. Use switch +access +r for this region.
# KERNEL: Warning: KERNEL_0085 "/top/s_axi_sg_if/MON_MOD_slave/slv_mon_cb/wvalid" does not have read access. Use switch +access +r for this region.
# KERNEL: Warning: KERNEL_0085 "/top/s_axi_sg_if/MON_MOD_slave/slv_mon_cb/wready" does not have read access. Use switch +access +r for this region.
# KERNEL: Warning: KERNEL_0085 "/top/s_axi_sg_if/MON_MOD_slave/slv_mon_cb/awlock" does not have read access. Use switch +access +r for this region.
# KERNEL: Warning: KERNEL_0085 "/top/s_axi_sg_if/MON_MOD_slave/slv_mon_cb/awprot" does not have read access. Use switch +access +r for this region.
# KERNEL: Warning: KERNEL_0085 "/top/s_axi_sg_if/MON_MOD_slave/slv_mon_cb/awqos" does not have read access. Use switch +access +r for this region.
# KERNEL: Warning: KERNEL_0085 "/top/s_axi_sg_if/MON_MOD_slave/slv_mon_cb/awregion" does not have read access. Use switch +access +r for this region.
# KERNEL: Warning: KERNEL_0085 "/top/s_axi_sg_if/MON_MOD_slave/slv_mon_cb/awcache" does not have read access. Use switch +access +r for this region.
# VSIM: 119 object(s) traced.
# KERNEL: UVM_INFO @ 0: reporter [RNTST] Running test simple_mode_b2b_ioc_test...
# KERNEL: WARNING: NUMERIC_STD.TO_INTEGER: metavalue detected, returning 0
# KERNEL: Time: 0 ps,  Iteration: 0,  Instance: /top/dut/design_1_i/axi_cdma_0/U0/GEN_SG_MODE/I_SG_MODE_WRAP/I_SG_ENGINE/I_SG_AXI_DATAMOVER/GEN_S2MM_BASIC/I_S2MM_BASIC_WRAPPER/I_WR_STATUS_CNTLR/I_WRESP_STATUS_FIFO/USE_SRL_FIFO/I_SYNC_FIFO,  Process: line__1954.
# KERNEL: WARNING: NUMERIC_STD.TO_INTEGER: metavalue detected, returning 0
# KERNEL: Time: 0 ps,  Iteration: 0,  Instance: /top/dut/design_1_i/axi_cdma_0/U0/GEN_SG_MODE/I_SG_MODE_WRAP/I_SG_ENGINE/I_SG_AXI_DATAMOVER/GEN_S2MM_BASIC/I_S2MM_BASIC_WRAPPER/I_WR_STATUS_CNTLR/I_WRESP_STATUS_FIFO/USE_SRL_FIFO/I_SYNC_FIFO,  Process: line__1954.
# KERNEL: WARNING: NUMERIC_STD.TO_INTEGER: metavalue detected, returning 0
# KERNEL: Time: 0 ps,  Iteration: 0,  Instance: /top/dut/design_1_i/axi_cdma_0/U0/GEN_SG_MODE/I_SG_MODE_WRAP/I_SG_ENGINE/I_SG_AXI_DATAMOVER/GEN_S2MM_BASIC/I_S2MM_BASIC_WRAPPER/I_WR_STATUS_CNTLR/GEN_OMIT_INDET_BTT/I_DATA_CNTL_STATUS_FIFO/USE_SRL_FIFO/I_SYNC_FIFO,  Process: line__1954.
# KERNEL: WARNING: NUMERIC_STD.TO_INTEGER: metavalue detected, returning 0
# KERNEL: Time: 0 ps,  Iteration: 0,  Instance: /top/dut/design_1_i/axi_cdma_0/U0/GEN_SG_MODE/I_SG_MODE_WRAP/I_SG_ENGINE/I_SG_AXI_DATAMOVER/GEN_S2MM_BASIC/I_S2MM_BASIC_WRAPPER/I_WR_STATUS_CNTLR/GEN_OMIT_INDET_BTT/I_DATA_CNTL_STATUS_FIFO/USE_SRL_FIFO/I_SYNC_FIFO,  Process: line__1954.
# KERNEL: WARNING: NUMERIC_STD.TO_UNSIGNED: vector truncated
# KERNEL: Time: 0 ps,  Iteration: 0,  Instance: /top/dut/design_1_i/axi_cdma_0/U0/GEN_SG_MODE/I_SG_MODE_WRAP/I_SG_ENGINE/I_SG_AXI_DATAMOVER/GEN_S2MM_BASIC/I_S2MM_BASIC_WRAPPER/I_WR_DATA_CNTL,  Process: line__13136.
# KERNEL: WARNING: NUMERIC_STD.TO_INTEGER: metavalue detected, returning 0
# KERNEL: Time: 0 ps,  Iteration: 0,  Instance: /top/dut/design_1_i/axi_cdma_0/U0/GEN_SG_MODE/I_SG_MODE_WRAP/I_DATAMOVER/GEN_MM2S_FULL/I_MM2S_FULL_WRAPPER/I_ADDR_CNTL/GEN_ADDR_FIFO/I_ADDR_QUAL_FIFO/USE_SRL_FIFO/I_SYNC_FIFO,  Process: line__1954.
# KERNEL: WARNING: NUMERIC_STD.TO_INTEGER: metavalue detected, returning 0
# KERNEL: Time: 0 ps,  Iteration: 0,  Instance: /top/dut/design_1_i/axi_cdma_0/U0/GEN_SG_MODE/I_SG_MODE_WRAP/I_DATAMOVER/GEN_MM2S_FULL/I_MM2S_FULL_WRAPPER/I_ADDR_CNTL/GEN_ADDR_FIFO/I_ADDR_QUAL_FIFO/USE_SRL_FIFO/I_SYNC_FIFO,  Process: line__1954.
# KERNEL: WARNING: NUMERIC_STD.TO_UNSIGNED: vector truncated
# KERNEL: Time: 0 ps,  Iteration: 0,  Instance: /top/dut/design_1_i/axi_cdma_0/U0/GEN_SG_MODE/I_SG_MODE_WRAP/I_DATAMOVER/GEN_MM2S_FULL/I_MM2S_FULL_WRAPPER/I_RD_DATA_CNTL,  Process: line__13101.
# KERNEL: WARNING: NUMERIC_STD.TO_INTEGER: metavalue detected, returning 0
# KERNEL: Time: 0 ps,  Iteration: 0,  Instance: /top/dut/design_1_i/axi_cdma_0/U0/GEN_SG_MODE/I_SG_MODE_WRAP/I_DATAMOVER/GEN_MM2S_FULL/I_MM2S_FULL_WRAPPER/I_RD_DATA_CNTL/GEN_DATA_CNTL_FIFO/I_DATA_CNTL_FIFO/USE_SRL_FIFO/I_SYNC_FIFO,  Process: line__1954.
# KERNEL: WARNING: NUMERIC_STD.TO_INTEGER: metavalue detected, returning 0
# KERNEL: Time: 0 ps,  Iteration: 0,  Instance: /top/dut/design_1_i/axi_cdma_0/U0/GEN_SG_MODE/I_SG_MODE_WRAP/I_DATAMOVER/GEN_MM2S_FULL/I_MM2S_FULL_WRAPPER/I_RD_DATA_CNTL/GEN_DATA_CNTL_FIFO/I_DATA_CNTL_FIFO/USE_SRL_FIFO/I_SYNC_FIFO,  Process: line__1954.
# KERNEL: WARNING: NUMERIC_STD.TO_INTEGER: metavalue detected, returning 0
# KERNEL: Time: 0 ps,  Iteration: 0,  Instance: /top/dut/design_1_i/axi_cdma_0/U0/GEN_SG_MODE/I_SG_MODE_WRAP/I_DATAMOVER/GEN_S2MM_FULL/I_S2MM_FULL_WRAPPER/I_WR_STATUS_CNTLR/I_WRESP_STATUS_FIFO/USE_SRL_FIFO/I_SYNC_FIFO,  Process: line__1954.
# KERNEL: WARNING: NUMERIC_STD.TO_INTEGER: metavalue detected, returning 0
# KERNEL: Time: 0 ps,  Iteration: 0,  Instance: /top/dut/design_1_i/axi_cdma_0/U0/GEN_SG_MODE/I_SG_MODE_WRAP/I_DATAMOVER/GEN_S2MM_FULL/I_S2MM_FULL_WRAPPER/I_WR_STATUS_CNTLR/I_WRESP_STATUS_FIFO/USE_SRL_FIFO/I_SYNC_FIFO,  Process: line__1954.
# KERNEL: WARNING: NUMERIC_STD.TO_INTEGER: metavalue detected, returning 0
# KERNEL: Time: 0 ps,  Iteration: 0,  Instance: /top/dut/design_1_i/axi_cdma_0/U0/GEN_SG_MODE/I_SG_MODE_WRAP/I_DATAMOVER/GEN_S2MM_FULL/I_S2MM_FULL_WRAPPER/I_WR_STATUS_CNTLR/GEN_OMIT_INDET_BTT/I_DATA_CNTL_STATUS_FIFO/USE_SRL_FIFO/I_SYNC_FIFO,  Process: line__1954.
# KERNEL: WARNING: NUMERIC_STD.TO_INTEGER: metavalue detected, returning 0
# KERNEL: Time: 0 ps,  Iteration: 0,  Instance: /top/dut/design_1_i/axi_cdma_0/U0/GEN_SG_MODE/I_SG_MODE_WRAP/I_DATAMOVER/GEN_S2MM_FULL/I_S2MM_FULL_WRAPPER/I_WR_STATUS_CNTLR/GEN_OMIT_INDET_BTT/I_DATA_CNTL_STATUS_FIFO/USE_SRL_FIFO/I_SYNC_FIFO,  Process: line__1954.
# KERNEL: WARNING: NUMERIC_STD.TO_INTEGER: metavalue detected, returning 0
# KERNEL: Time: 0 ps,  Iteration: 0,  Instance: /top/dut/design_1_i/axi_cdma_0/U0/GEN_SG_MODE/I_SG_MODE_WRAP/I_DATAMOVER/GEN_S2MM_FULL/I_S2MM_FULL_WRAPPER/I_ADDR_CNTL/GEN_ADDR_FIFO/I_ADDR_QUAL_FIFO/USE_SRL_FIFO/I_SYNC_FIFO,  Process: line__1954.
# KERNEL: WARNING: NUMERIC_STD.TO_INTEGER: metavalue detected, returning 0
# KERNEL: Time: 0 ps,  Iteration: 0,  Instance: /top/dut/design_1_i/axi_cdma_0/U0/GEN_SG_MODE/I_SG_MODE_WRAP/I_DATAMOVER/GEN_S2MM_FULL/I_S2MM_FULL_WRAPPER/I_ADDR_CNTL/GEN_ADDR_FIFO/I_ADDR_QUAL_FIFO/USE_SRL_FIFO/I_SYNC_FIFO,  Process: line__1954.
# KERNEL: WARNING: NUMERIC_STD.TO_UNSIGNED: vector truncated
# KERNEL: Time: 0 ps,  Iteration: 0,  Instance: /top/dut/design_1_i/axi_cdma_0/U0/GEN_SG_MODE/I_SG_MODE_WRAP/I_DATAMOVER/GEN_S2MM_FULL/I_S2MM_FULL_WRAPPER/I_WR_DATA_CNTL,  Process: line__17231.
# KERNEL: WARNING: NUMERIC_STD.TO_INTEGER: metavalue detected, returning 0
# KERNEL: Time: 0 ps,  Iteration: 0,  Instance: /top/dut/design_1_i/axi_cdma_0/U0/GEN_SG_MODE/I_SG_MODE_WRAP/I_DATAMOVER/GEN_S2MM_FULL/I_S2MM_FULL_WRAPPER/I_WR_DATA_CNTL/GEN_DATA_CNTL_FIFO/I_DATA_CNTL_FIFO/USE_SRL_FIFO/I_SYNC_FIFO,  Process: line__1954.
# KERNEL: WARNING: NUMERIC_STD.TO_INTEGER: metavalue detected, returning 0
# KERNEL: Time: 0 ps,  Iteration: 0,  Instance: /top/dut/design_1_i/axi_cdma_0/U0/GEN_SG_MODE/I_SG_MODE_WRAP/I_DATAMOVER/GEN_S2MM_FULL/I_S2MM_FULL_WRAPPER/I_WR_DATA_CNTL/GEN_DATA_CNTL_FIFO/I_DATA_CNTL_FIFO/USE_SRL_FIFO/I_SYNC_FIFO,  Process: line__1954.
# KERNEL: WARNING: CONV_INTEGER: There is an 'U'|'X'|'W'|'Z'|'-' in an arithmetic operand, and it has been converted to 0.
# KERNEL: Time: 0 ps,  Iteration: 0,  Instance: /top/dut/design_1_i/axi_cdma_0/U0/GEN_SG_MODE/I_SG_MODE_WRAP/GEN_INCLUDE_SF/I_STORE_FORWARD/I_DATA_FIFO,  Process: line__6000.
# KERNEL: WARNING: NUMERIC_STD.TO_UNSIGNED: vector truncated
# KERNEL: Time: 0 ps,  Iteration: 8,  Instance: /top/dut/design_1_i/axi_cdma_0/U0/GEN_SG_MODE/I_SG_MODE_WRAP/I_DATAMOVER/GEN_MM2S_FULL/I_MM2S_FULL_WRAPPER/GEN_INCLUDE_MM2S_DRE/I_DRE_16_to_64/GEN_MUXFARM_128,  Process: line__34191.
# KERNEL: WARNING: NUMERIC_STD."<=": metavalue detected, returning FALSE
# KERNEL: Time: 0 ps,  Iteration: 10,  Instance: /top/dut/design_1_i/axi_cdma_0/U0/GEN_SG_MODE/I_SG_MODE_WRAP/GEN_INCLUDE_SF/I_STORE_FORWARD,  Process: line__7241.
# KERNEL: WARNING: NUMERIC_STD.">": metavalue detected, returning FALSE
# KERNEL: Time: 0 ps,  Iteration: 10,  Instance: /top/dut/design_1_i/axi_cdma_0/U0/GEN_SG_MODE/I_SG_MODE_WRAP/GEN_INCLUDE_SF/I_STORE_FORWARD,  Process: line__7142.
# KERNEL: UVM_INFO /home/harish/AXI_CDMA/CDMA_TB/top/cdma_base_test.sv(17) @ 0: uvm_test_top [test::build_phase] build
# KERNEL: UVM_INFO /home/harish/AXI_CDMA/CDMA_TB/top/cdma_env.sv(24) @ 0: uvm_test_top.env [cdma_env::build] build
# KERNEL: UVM_INFO ./uvm-1.2/src/base/uvm_spell_chkr.svh(123) @ 0: reporter [UVM/CONFIGDB/SPELLCHK] include_coverage not located, did you mean config_obj|reset_if
# KERNEL: UVM_INFO /home/harish/AXI_CDMA/CDMA_TB/axi_lite/master_agent.sv(24) @ 0: uvm_test_top.env.m_agt[0] [master_agent] build
# KERNEL: UVM_INFO /home/harish/AXI_CDMA/CDMA_TB/axi_lite/master_monitor_1.sv(30) @ 0: uvm_test_top.env.m_agt[0].mon [uvm_test_top.env.m_agt[0].mon] build
# KERNEL: UVM_INFO /home/harish/AXI_CDMA/CDMA_TB/axi_slave/slave_agent.sv(23) @ 0: uvm_test_top.env.s_agt[0] [slave_agent] build
# KERNEL: UVM_INFO /home/harish/AXI_CDMA/CDMA_TB/axi_slave/slave_monitor_2.sv(35) @ 0: uvm_test_top.env.s_agt[0].mon [uvm_test_top.env.s_agt[0].mon] build
# KERNEL: UVM_INFO /home/harish/AXI_CDMA/CDMA_TB/axi_slave/slave_agent.sv(23) @ 0: uvm_test_top.env.s_agt[1] [slave_agent] build
# KERNEL: UVM_INFO /home/harish/AXI_CDMA/CDMA_TB/axi_slave/slave_monitor_2.sv(35) @ 0: uvm_test_top.env.s_agt[1].mon [uvm_test_top.env.s_agt[1].mon] build
# KERNEL: UVM_INFO /home/harish/AXI_CDMA/CDMA_TB/axi_lite/master_agent.sv(34) @ 0: uvm_test_top.env.m_agt[0] [master_agent::connect] connect
# KERNEL: UVM_INFO /home/harish/AXI_CDMA/CDMA_TB/axi_slave/slave_agent.sv(34) @ 0: uvm_test_top.env.s_agt[0] [slave_agent::connect] connect
# KERNEL: UVM_INFO /home/harish/AXI_CDMA/CDMA_TB/axi_slave/slave_agent.sv(34) @ 0: uvm_test_top.env.s_agt[1] [slave_agent::connect] connect
# KERNEL: UVM_INFO /home/harish/AXI_CDMA/CDMA_TB/top/cdma_env.sv(57) @ 0: uvm_test_top.env [cdma_env::connect] inside_cdma_env_connect_phase
# KERNEL: UVM_INFO /home/harish/AXI_CDMA/CDMA_TB/top/cdma_env.sv(85) @ 0: uvm_test_top.env [CONNECT] map -> sequencer_set_for_master 0
# KERNEL: UVM_INFO /home/harish/AXI_CDMA/CDMA_TB/top/cdma_env.sv(92) @ 0: uvm_test_top.env [CONNECT] mon_ap connected for master 0
# KERNEL: UVM_INFO /home/harish/AXI_CDMA/CDMA_TB/top/cdma_env.sv(117) @ 0: uvm_test_top.env [CONNECT] slave driver connected for slave 0
# KERNEL: UVM_INFO /home/harish/AXI_CDMA/CDMA_TB/top/cdma_env.sv(117) @ 0: uvm_test_top.env [CONNECT] slave driver connected for slave 1
# KERNEL: UVM_INFO /home/harish/AXI_CDMA/CDMA_TB/top/cdma_base_test.sv(31) @ 0: uvm_test_top [test::end_of_elaboration] end_of_elaboration
# KERNEL: UVM_INFO ./uvm-1.2/src/base/uvm_root.svh(583) @ 0: reporter [UVMTOP] UVM testbench topology:
# KERNEL: ----------------------------------------------------------------------------
# KERNEL: Name                       Type                                  Size  Value
# KERNEL: ----------------------------------------------------------------------------
# KERNEL: uvm_test_top               simple_mode_b2b_ioc_test              -     @362 
# KERNEL:   env                      cdma_env                              -     @377 
# KERNEL:     chk                    cdma_chk                              -     @670 
# KERNEL:       master_af            uvm_tlm_analysis_fifo #(T)            -     @707 
# KERNEL:         analysis_export    uvm_analysis_imp                      -     @756 
# KERNEL:         get_ap             uvm_analysis_port                     -     @746 
# KERNEL:         get_peek_export    uvm_get_peek_imp                      -     @726 
# KERNEL:         put_ap             uvm_analysis_port                     -     @736 
# KERNEL:         put_export         uvm_put_imp                           -     @716 
# KERNEL:       rd_slave_af          uvm_tlm_analysis_fifo #(T)            -     @766 
# KERNEL:         analysis_export    uvm_analysis_imp                      -     @815 
# KERNEL:         get_ap             uvm_analysis_port                     -     @805 
# KERNEL:         get_peek_export    uvm_get_peek_imp                      -     @785 
# KERNEL:         put_ap             uvm_analysis_port                     -     @795 
# KERNEL:         put_export         uvm_put_imp                           -     @775 
# KERNEL:       wr_slave_af          uvm_tlm_analysis_fifo #(T)            -     @825 
# KERNEL:         analysis_export    uvm_analysis_imp                      -     @874 
# KERNEL:         get_ap             uvm_analysis_port                     -     @864 
# KERNEL:         get_peek_export    uvm_get_peek_imp                      -     @844 
# KERNEL:         put_ap             uvm_analysis_port                     -     @854 
# KERNEL:         put_export         uvm_put_imp                           -     @834 
# KERNEL:     cov                    cdma_cov                              -     @688 
# KERNEL:       analysis_imp         uvm_analysis_imp                      -     @697 
# KERNEL:     m_agt[0]               master_agent                          -     @643 
# KERNEL:       drv                  master_driver                         -     @899 
# KERNEL:         rsp_port           uvm_analysis_port                     -     @918 
# KERNEL:         seq_item_port      uvm_seq_item_pull_port                -     @908 
# KERNEL:       mon                  master_monitor                        -     @890 
# KERNEL:         mon_ap             uvm_analysis_port                     -     @1066
# KERNEL:       sqr                  master_sequencer                      -     @928 
# KERNEL:         rsp_export         uvm_analysis_export                   -     @937 
# KERNEL:         seq_item_export    uvm_seq_item_pull_imp                 -     @1055
# KERNEL:         arbitration_queue  array                                 0     -    
# KERNEL:         lock_queue         array                                 0     -    
# KERNEL:         num_last_reqs      integral                              32    'd1  
# KERNEL:         num_last_rsps      integral                              32    'd1  
# KERNEL:     reg_predictor          uvm_reg_predictor #(master_seq_item)  -     @396 
# KERNEL:       bus_in               uvm_analysis_imp                      -     @405 
# KERNEL:       reg_ap               uvm_analysis_port                     -     @415 
# KERNEL:     s_agt[0]               slave_agent                           -     @652 
# KERNEL:       drv                  slave_driver                          -     @1095
# KERNEL:         rsp_port           uvm_analysis_port                     -     @1114
# KERNEL:         seq_item_port      uvm_seq_item_pull_port                -     @1104
# KERNEL:       mon                  slave_monitor                         -     @1086
# KERNEL:         mon_ap             uvm_analysis_port                     -     @1320
# KERNEL:         rd_mon_ap          uvm_analysis_port                     -     @1340
# KERNEL:         resp_ap            uvm_analysis_port                     -     @1350
# KERNEL:         wr_mon_ap          uvm_analysis_port                     -     @1330
# KERNEL:       sqr                  slave_sequencer                       -     @1124
# KERNEL:         resp_af            uvm_tlm_analysis_fifo #(T)            -     @1261
# KERNEL:           analysis_export  uvm_analysis_imp                      -     @1310
# KERNEL:           get_ap           uvm_analysis_port                     -     @1300
# KERNEL:           get_peek_export  uvm_get_peek_imp                      -     @1280
# KERNEL:           put_ap           uvm_analysis_port                     -     @1290
# KERNEL:           put_export       uvm_put_imp                           -     @1270
# KERNEL:         rsp_export         uvm_analysis_export                   -     @1133
# KERNEL:         seq_item_export    uvm_seq_item_pull_imp                 -     @1251
# KERNEL:         arbitration_queue  array                                 0     -    
# KERNEL:         lock_queue         array                                 0     -    
# KERNEL:         num_last_reqs      integral                              32    'd1  
# KERNEL:         num_last_rsps      integral                              32    'd1  
# KERNEL:     s_agt[1]               slave_agent                           -     @661 
# KERNEL:       drv                  slave_driver                          -     @1379
# KERNEL:         rsp_port           uvm_analysis_port                     -     @1398
# KERNEL:         seq_item_port      uvm_seq_item_pull_port                -     @1388
# KERNEL:       mon                  slave_monitor                         -     @1370
# KERNEL:         mon_ap             uvm_analysis_port                     -     @1604
# KERNEL:         rd_mon_ap          uvm_analysis_port                     -     @1624
# KERNEL:         resp_ap            uvm_analysis_port                     -     @1634
# KERNEL:         wr_mon_ap          uvm_analysis_port                     -     @1614
# KERNEL:       sqr                  slave_sequencer                       -     @1408
# KERNEL:         resp_af            uvm_tlm_analysis_fifo #(T)            -     @1545
# KERNEL:           analysis_export  uvm_analysis_imp                      -     @1594
# KERNEL:           get_ap           uvm_analysis_port                     -     @1584
# KERNEL:           get_peek_export  uvm_get_peek_imp                      -     @1564
# KERNEL:           put_ap           uvm_analysis_port                     -     @1574
# KERNEL:           put_export       uvm_put_imp                           -     @1554
# KERNEL:         rsp_export         uvm_analysis_export                   -     @1417
# KERNEL:         seq_item_export    uvm_seq_item_pull_imp                 -     @1535
# KERNEL:         arbitration_queue  array                                 0     -    
# KERNEL:         lock_queue         array                                 0     -    
# KERNEL:         num_last_reqs      integral                              32    'd1  
# KERNEL:         num_last_rsps      integral                              32    'd1  
# KERNEL:     sbd                    cdma_sbd                              -     @679 
# KERNEL:       master_af            uvm_tlm_analysis_fifo #(T)            -     @1651
# KERNEL:         analysis_export    uvm_analysis_imp                      -     @1700
# KERNEL:         get_ap             uvm_analysis_port                     -     @1690
# KERNEL:         get_peek_export    uvm_get_peek_imp                      -     @1670
# KERNEL:         put_ap             uvm_analysis_port                     -     @1680
# KERNEL:         put_export         uvm_put_imp                           -     @1660
# KERNEL:       slave_af             uvm_tlm_analysis_fifo #(T)            -     @1710
# KERNEL:         analysis_export    uvm_analysis_imp                      -     @1759
# KERNEL:         get_ap             uvm_analysis_port                     -     @1749
# KERNEL:         get_peek_export    uvm_get_peek_imp                      -     @1729
# KERNEL:         put_ap             uvm_analysis_port                     -     @1739
# KERNEL:         put_export         uvm_put_imp                           -     @1719
# KERNEL:     v_seqr                 virtual_sequencer                     -     @505 
# KERNEL:       m_sqr_h[0]           master_sequencer                      -     @1775
# KERNEL:         rsp_export         uvm_analysis_export                   -     @1784
# KERNEL:         seq_item_export    uvm_seq_item_pull_imp                 -     @1902
# KERNEL:         arbitration_queue  array                                 0     -    
# KERNEL:         lock_queue         array                                 0     -    
# KERNEL:         num_last_reqs      integral                              32    'd1  
# KERNEL:         num_last_rsps      integral                              32    'd1  
# KERNEL:       rsp_export           uvm_analysis_export                   -     @514 
# KERNEL:       s_sqr_h[0]           slave_sequencer                       -     @1912
# KERNEL:         resp_af            uvm_tlm_analysis_fifo #(T)            -     @2049
# KERNEL:           analysis_export  uvm_analysis_imp                      -     @2098
# KERNEL:           get_ap           uvm_analysis_port                     -     @2088
# KERNEL:           get_peek_export  uvm_get_peek_imp                      -     @2068
# KERNEL:           put_ap           uvm_analysis_port                     -     @2078
# KERNEL:           put_export       uvm_put_imp                           -     @2058
# KERNEL:         rsp_export         uvm_analysis_export                   -     @1921
# KERNEL:         seq_item_export    uvm_seq_item_pull_imp                 -     @2039
# KERNEL:         arbitration_queue  array                                 0     -    
# KERNEL:         lock_queue         array                                 0     -    
# KERNEL:         num_last_reqs      integral                              32    'd1  
# KERNEL:         num_last_rsps      integral                              32    'd1  
# KERNEL:       s_sqr_h[1]           slave_sequencer                       -     @2108
